;$FILEVERSION=1.3
;$STARTTIME=42888.4065162123
;
;   C:\Users\gyz\Desktop\Trace1.trc
;   Start time: 2017/6/2 09:45:23.000.7
;   Generated by PCAN-Explorer v5.3.4
;-------------------------------------------------------------------------------
;   Bus  Name         Connection         Protocol  Bit rate
;   1    Connection1  Untitled@pcan_usb  CAN       500 kbit/s
;-------------------------------------------------------------------------------
;   Message Number
;   |         Time Offset (ms)
;   |         |       Bus
;   |         |       |    Type
;   |         |       |    |       ID (hex)
;   |         |       |    |       |    Reserved
;   |         |       |    |       |    |   Data Length Code
;   |         |       |    |       |    |   |    Data Bytes (hex) ...
;   |         |       |    |       |    |   |    |
;   |         |       |    |       |    |   |    |
;---+-- ------+------ +- --+-- ----+--- +- -+-- -+ -- -- -- -- -- -- --
     1)         0.775 1  Rx        0120 -  8    C0 2B C0 5D 70 17 38 8F 
     2)         0.988 1  Rx        0121 -  8    3C 00 00 28 4D 4C 10 0F 
     3)         1.244 1  Rx        0122 -  8    13 00 00 00 00 00 00 0F 
     4)         4.401 1  Rx        02F4 -  8    09 44 00 00 00 00 00 00 
     5)         8.156 1  Rx        0211 -  8    00 00 00 00 7B E8 33 A0 
     6)         8.412 1  Rx        0213 -  8    00 00 00 00 00 00 30 30 
     7)         8.625 1  Rx        0221 -  8    00 00 00 6B 00 60 00 00 
     8)         8.881 1  Rx        0231 -  8    00 00 00 40 64 FE FE 00 
     9)         9.137 1  Rx        01F5 -  8    00 80 00 00 00 00 00 7F 
    10)         9.862 1  Rx        02C0 -  8    FF 7F 00 84 51 00 00 00 
    11)        10.758 1  Rx        0120 -  8    C0 2B C0 5D 70 17 38 90 
    12)        11.014 1  Rx        0121 -  8    3C 00 00 28 4D 4C 10 00 
    13)        11.270 1  Rx        0122 -  8    13 00 00 00 00 00 00 00 
    14)        13.702 1  Rx        0102 -  8    28 64 00 00 00 00 00 03 
    15)        18.140 1  Rx        0211 -  8    00 00 00 00 7B E8 43 D0 
    16)        18.396 1  Rx        0213 -  8    00 00 00 00 00 00 40 40 
    17)        18.652 1  Rx        0221 -  8    00 00 00 6B 00 60 00 00 
    18)        18.908 1  Rx        0231 -  8    00 00 00 40 64 FE FE 00 
    19)        19.121 1  Rx        01F5 -  8    00 81 00 00 00 00 00 7E 
    20)        19.846 1  Rx        02C0 -  8    FF 7F 00 84 62 00 00 00 
    21)        20.785 1  Rx        0120 -  8    C0 2B C0 5D 70 17 38 91 
    22)        20.998 1  Rx        0121 -  8    3C 00 00 28 4D 4C 10 01 
    23)        21.254 1  Rx        0122 -  8    13 00 00 00 00 00 00 01 
    24)        27.526 1  Rx        02F4 -  8    09 44 00 00 00 00 00 00 
    25)        28.166 1  Rx        0211 -  8    00 00 00 00 7B E8 53 C0 
    26)        28.422 1  Rx        0213 -  8    00 00 00 00 00 00 50 50 
    27)        28.678 1  Rx        0221 -  8    00 00 00 6B 00 60 00 00 
    28)        28.891 1  Rx        0231 -  8    00 00 00 40 64 FE FE 00 
    29)        29.147 1  Rx        01F5 -  8    00 82 00 00 00 00 00 7D 
    30)        29.873 1  Rx        02C0 -  8    FF 7F 00 84 73 00 00 00 
    31)        30.769 1  Rx        0120 -  8    C0 2B C0 5D 70 17 38 92 
    32)        31.025 1  Rx        0121 -  8    3C 00 00 28 4D 4C 10 02 
    33)        31.238 1  Rx        0122 -  8    13 00 00 00 00 00 00 02 
    34)        33.713 1  Rx        0102 -  8    28 64 00 00 00 00 00 04 
    35)        38.150 1  Rx        0211 -  8    00 00 00 00 7B E8 63 F0 
    36)        38.406 1  Rx        0213 -  8    00 00 00 00 00 00 60 60 
    37)        38.662 1  Rx        0221 -  8    00 00 00 6B 00 60 00 00 
    38)        38.875 1  Rx        0231 -  8    00 00 00 40 64 FE FE 00 
    39)        39.131 1  Rx        01F5 -  8    00 83 00 00 00 00 00 7C 
    40)        39.857 1  Rx        02C0 -  8    FF 7F 00 84 04 00 00 00 
    41)        40.795 1  Rx        0120 -  8    C0 2B C0 5D 70 17 38 93 
    42)        41.051 1  Rx        0121 -  8    3C 00 00 28 4D 4C 10 03 
    43)        41.307 1  Rx        0122 -  8    13 00 00 00 00 00 00 03 
    44)        44.422 1  Rx        02F4 -  8    09 44 00 00 00 00 00 00 
    45)        48.177 1  Rx        0211 -  8    00 00 00 00 7B E8 73 E0 
    46)        48.390 1  Rx        0213 -  8    00 00 00 00 00 00 70 70 
    47)        48.646 1  Rx        0221 -  8    00 00 00 6B 00 60 00 00 
    48)        48.902 1  Rx        0231 -  8    00 00 00 40 64 FE FE 00 
    49)        49.158 1  Rx        01F5 -  8    00 80 00 00 00 00 00 7F 
    50)        49.883 1  Rx        02C0 -  8    FF 7F 00 84 15 00 00 00 
    51)        50.822 1  Rx        0120 -  8    C0 2B C0 5D 70 17 38 94 
    52)        51.035 1  Rx        0121 -  8    3C 00 00 28 4D 4C 10 04 
    53)        51.291 1  Rx        0122 -  8    13 00 00 00 00 00 00 04 
    54)        53.723 1  Rx        0102 -  8    28 64 00 00 00 00 00 05 
    55)        58.246 1  Rx        0211 -  8    00 00 00 00 7B E9 83 11 
    56)        58.459 1  Rx        0213 -  8    00 00 00 00 00 00 80 80 
    57)        58.715 1  Rx        0221 -  8    00 00 00 6B 00 60 00 00 
    58)        58.971 1  Rx        01F5 -  8    00 81 00 00 00 00 00 7E 
    59)        59.227 1  Rx        0231 -  8    00 00 00 40 64 FE FE 00 
    60)        59.867 1  Rx        02C0 -  8    FF 7F 00 84 26 00 00 00 
    61)        60.806 1  Rx        0120 -  8    C0 2B C0 5D 70 17 38 95 
    62)        61.062 1  Rx        0121 -  8    3C 00 00 28 4D 4C 10 05 
    63)        61.275 1  Rx        0122 -  8    13 00 00 00 00 00 00 05 
    64)        64.390 1  Rx        02F4 -  8    09 44 00 00 00 00 00 00 
    65)        68.187 1  Rx        0211 -  8    00 00 00 00 7B E8 93 00 
    66)        68.443 1  Rx        0213 -  8    00 00 00 00 00 00 90 90 
    67)        68.656 1  Rx        0221 -  8    00 00 00 6B 00 60 00 00 
    68)        68.912 1  Rx        01F5 -  8    00 82 00 00 00 00 00 7D 
    69)        69.168 1  Rx        0231 -  8    00 00 00 40 64 FE FE 00 
    70)        69.851 1  Rx        02C0 -  8    FF 7F 00 84 37 00 00 00 
    71)        70.790 1  Rx        0120 -  8    C0 2B C0 5D 70 17 38 96 
    72)        71.045 1  Rx        0121 -  8    3C 00 00 28 4D 4C 10 06 
    73)        71.301 1  Rx        0122 -  8    13 00 00 00 00 00 00 06 
    74)        73.691 1  Rx        0100 -  8    97 0D 88 13 50 00 40 0A 
    75)        73.947 1  Rx        0102 -  8    28 64 00 00 00 00 00 06 
    76)        74.203 1  Rx        0116 -  8    24 5D 00 00 00 08 00 0A 
    77)        74.416 1  Rx        0114 -  8    00 00 67 9A 00 FF FF 0A 
    78)        78.171 1  Rx        0211 -  8    00 00 00 00 7B E8 A3 30 
    79)        78.427 1  Rx        0213 -  8    00 00 00 00 00 00 A0 A0 
    80)        78.640 1  Rx        0221 -  8    00 00 00 6B 00 60 00 00 
    81)        78.896 1  Rx        0231 -  8    00 00 00 40 64 FE FE 00 
    82)        79.152 1  Rx        01F5 -  8    00 83 00 00 00 00 00 7C 
    83)        79.877 1  Rx        02C0 -  8    FF 7F 00 84 C8 00 00 00 
    84)        80.816 1  Rx        0120 -  8    C0 2B C0 5D 70 17 38 97 
    85)        81.029 1  Rx        0121 -  8    3A 00 00 28 4D 4C 10 07 
    86)        81.285 1  Rx        0122 -  8    13 00 00 00 00 00 00 07 
    87)        84.400 1  Rx        02F4 -  8    09 44 00 00 00 00 00 00 
    88)        88.197 1  Rx        0211 -  8    00 00 00 00 7B E8 B3 20 
    89)        88.411 1  Rx        0213 -  8    00 00 00 00 00 00 B0 B0 
    90)        88.667 1  Rx        0221 -  8    00 00 00 6B 00 60 00 00 
    91)        88.923 1  Rx        01F5 -  8    00 80 00 00 00 00 00 7F 
    92)        89.136 1  Rx        0231 -  8    00 00 00 40 64 FE FE 00 
    93)        89.861 1  Rx        02C0 -  8    FF 7F 00 84 D9 00 00 00 
    94)        90.800 1  Rx        0120 -  8    C0 2B C0 5D 70 17 38 98 
    95)        91.056 1  Rx        0121 -  8    3A 00 00 28 4D 4C 10 08 
    96)        91.269 1  Rx        0122 -  8    13 00 00 00 00 00 00 08 
    97)        93.701 1  Rx        0102 -  8    28 64 00 00 00 00 00 07 
    98)        98.181 1  Rx        0211 -  8    00 00 00 00 7B E8 C3 50 
    99)        98.437 1  Rx        0213 -  8    00 00 00 00 00 00 C0 C0 
   100)        98.650 1  Rx        0221 -  8    00 00 00 6B 00 60 00 00 
   101)        98.906 1  Rx        01F5 -  8    00 81 00 00 00 00 00 7E 
   102)        99.162 1  Rx        0231 -  8    00 00 00 40 64 FE FE 00 
   103)        99.888 1  Rx        02C0 -  8    FF 7F 00 84 EA 00 00 00 
   104)       100.826 1  Rx        0120 -  8    C0 2B C0 5D 70 17 38 99 
   105)       101.040 1  Rx        0121 -  8    3C 00 00 28 4D 4C 10 09 
   106)       101.296 1  Rx        0122 -  8    13 00 00 00 00 00 00 09 
   107)       104.410 1  Rx        02F4 -  8    09 44 00 00 00 00 00 00 
   108)       108.165 1  Rx        0211 -  8    00 00 00 00 7B E8 D3 40 
   109)       108.421 1  Rx        0213 -  8    00 00 00 00 00 00 D0 D0 
   110)       108.634 1  Rx        0221 -  8    00 00 00 6B 00 60 00 00 
   111)       108.890 1  Rx        01F5 -  8    00 82 00 00 00 00 00 7D 
   112)       109.146 1  Rx        0231 -  8    00 00 00 40 64 FE FE 00 
   113)       109.872 1  Rx        02C0 -  8    FF 7F 00 84 FB 00 00 00 
   114)       110.810 1  Rx        0120 -  8    C0 2B C0 5D 70 17 38 9A 
   115)       111.024 1  Rx        0121 -  8    3C 00 00 28 4D 4C 10 0A 
   116)       111.280 1  Rx        0122 -  8    13 00 00 00 00 00 00 0A 
   117)       113.711 1  Rx        0102 -  8    28 64 00 00 00 00 00 08 
   118)       118.191 1  Rx        0211 -  8    00 00 00 00 7B E8 E3 70 
   119)       118.447 1  Rx        0213 -  8    00 00 00 00 00 00 E0 E0 
   120)       118.661 1  Rx        0221 -  8    00 00 00 6B 00 60 00 00 
   121)       118.917 1  Rx        01F5 -  8    00 83 00 00 00 00 00 7C 
   122)       119.173 1  Rx        0231 -  8    00 00 00 40 64 FE FE 00 
   123)       119.855 1  Rx        02C0 -  8    FF 7F 00 84 8C 00 00 00 
   124)       120.794 1  Rx        0120 -  8    C0 2B C0 5D 70 17 38 9B 
   125)       121.050 1  Rx        0121 -  8    3C 00 00 28 4D 4C 10 0B 
   126)       121.306 1  Rx        0122 -  8    13 00 00 00 00 00 00 0B 
   127)       124.421 1  Rx        02F4 -  8    09 44 00 00 00 00 00 00 
   128)       128.175 1  Rx        0211 -  8    00 00 00 00 7B E8 F3 60 
   129)       128.389 1  Rx        0213 -  8    00 00 00 00 00 00 F0 F0 
   130)       128.645 1  Rx        0221 -  8    00 00 00 6B 00 60 00 00 
   131)       128.901 1  Rx        01F5 -  8    00 80 00 00 00 00 00 7F 
   132)       129.114 1  Rx        0231 -  8    00 00 00 40 64 FE FE 00 
   133)       129.882 1  Rx        02C0 -  8    FF 7F 00 84 9D 00 00 00 
   134)       130.821 1  Rx        0120 -  8    C0 2B C0 5D 70 17 38 9C 
   135)       131.034 1  Rx        0121 -  8    3C 00 00 28 4D 4C 10 0C 
   136)       131.290 1  Rx        0122 -  8    13 00 00 00 00 00 00 0C 
   137)       133.722 1  Rx        0102 -  8    28 64 00 00 00 00 00 09 
   138)       138.202 1  Rx        0211 -  8    00 00 00 00 7B E8 03 90 
   139)       138.415 1  Rx        0213 -  8    00 00 00 00 00 00 00 00 
   140)       138.671 1  Rx        0221 -  8    00 00 00 6B 00 60 00 00 
   141)       138.927 1  Rx        01F5 -  8    00 81 00 00 00 00 00 7E 
   142)       139.140 1  Rx        0231 -  8    00 00 00 40 64 FE FE 00 
   143)       139.866 1  Rx        02C0 -  8    FF 7F 00 84 AE 00 00 00 
   144)       140.804 1  Rx        0120 -  8    C0 2B C0 5D 70 17 38 9D 
   145)       141.060 1  Rx        0121 -  8    3C 00 00 28 4D 4C 10 0D 
   146)       141.316 1  Rx        0122 -  8    13 00 00 00 00 00 00 0D 
   147)       144.388 1  Rx        02F4 -  8    09 44 00 00 00 00 00 00 
   148)       148.186 1  Rx        0211 -  8    00 00 00 00 7B E8 13 80 
   149)       148.442 1  Rx        0213 -  8    00 00 00 00 00 00 10 10 
   150)       148.698 1  Rx        0221 -  8    00 00 00 6B 00 60 00 00 
   151)       148.911 1  Rx        01F5 -  8    00 82 00 00 00 00 00 7D 
   152)       149.167 1  Rx        0231 -  8    00 00 00 40 64 FE FE 00 
   153)       149.935 1  Rx        02C0 -  8    FF 7F 00 84 BF 00 00 00 
   154)       150.788 1  Rx        0120 -  8    C0 2B C0 5D 70 17 38 9E 
   155)       151.044 1  Rx        0121 -  8    3C 00 00 28 4D 4C 10 0E 
   156)       151.300 1  Rx        0122 -  8    13 00 00 00 00 00 00 0E 
   157)       153.732 1  Rx        0102 -  8    28 64 00 00 00 00 00 0A 
   158)       158.169 1  Rx        0211 -  8    00 00 00 00 7B E8 23 B0 
   159)       158.425 1  Rx        0213 -  8    00 00 00 00 00 00 20 20 
   160)       158.681 1  Rx        0221 -  8    00 00 00 6B 00 60 00 00 
   161)       158.937 1  Rx        01F5 -  8    00 83 00 00 00 00 00 7C 
   162)       159.151 1  Rx        0231 -  8    00 00 00 40 64 FE FE 00 
   163)       159.876 1  Rx        02C0 -  8    FF 7F 00 84 40 00 00 00 
   164)       160.815 1  Rx        0120 -  8    C0 2B C0 5D 70 17 38 9F 
   165)       161.071 1  Rx        0121 -  8    3C 00 00 28 4D 4C 10 0F 
   166)       161.284 1  Rx        0122 -  8    13 00 00 00 00 00 00 0F 
   167)       164.399 1  Rx        02F4 -  8    09 44 00 00 00 00 00 00 
   168)       168.196 1  Rx        0211 -  8    00 00 00 00 7B E8 33 A0 
   169)       168.409 1  Rx        0213 -  8    00 00 00 00 00 00 30 30 
   170)       168.665 1  Rx        0221 -  8    00 00 00 6B 00 60 00 00 
   171)       168.921 1  Rx        01F5 -  8    00 80 00 00 00 00 00 7F 
   172)       169.177 1  Rx        0231 -  8    00 00 00 40 64 FE FE 00 
   173)       169.860 1  Rx        02C0 -  8    FF 7F 00 84 51 00 00 00 
   174)       170.799 1  Rx        0120 -  8    C0 2B C0 5D 70 17 38 A0 
   175)       171.055 1  Rx        0121 -  8    3A 00 00 28 4D 4C 10 00 
   176)       171.311 1  Rx        0122 -  8    13 00 00 00 00 00 00 00 
   177)       173.700 1  Rx        0100 -  8    97 0D 88 13 50 00 40 0B 
   178)       173.956 1  Rx        0102 -  8    28 64 00 00 00 00 00 0B 
   179)       174.169 1  Rx        0112 -  8    05 73 0F 4D 6C 0F 00 0B 
   180)       174.425 1  Rx        0113 -  8    01 42 14 40 FF FF 41 0B 
   181)       174.681 1  Rx        0114 -  8    00 00 67 9A 00 FF FF 0B 
   182)       174.895 1  Rx        0116 -  8    24 5D 00 00 00 08 00 0B 
   183)       175.151 1  Rx        0380 -  8    4A 72 0F 06 41 00 00 05 
   184)       175.407 1  Rx        0105 -  8    00 00 3D 0E 00 00 00 05 
   185)       178.180 1  Rx        0211 -  8    00 00 00 00 7B E8 43 D0 
   186)       178.436 1  Rx        0213 -  8    00 00 00 00 00 00 40 40 
   187)       178.692 1  Rx        0221 -  8    00 00 00 6B 00 60 00 00 
   188)       178.948 1  Rx        01F5 -  8    00 81 00 00 00 00 00 7E 
   189)       179.161 1  Rx        0231 -  8    00 00 00 40 64 FE FE 00 
   190)       179.886 1  Rx        02C0 -  8    FF 7F 00 84 62 00 00 00 
   191)       180.825 1  Rx        0120 -  8    C0 2B C0 5D 70 17 38 A1 
   192)       181.038 1  Rx        0121 -  8    3A 00 00 28 4D 4C 10 01 
   193)       181.294 1  Rx        0122 -  8    13 00 00 00 00 00 00 01 
   194)       184.409 1  Rx        02F4 -  8    09 44 00 00 00 00 00 00 
   195)       188.249 1  Rx        0211 -  8    00 00 00 00 7B E9 53 C1 
   196)       188.505 1  Rx        0213 -  8    00 00 00 00 00 00 50 50 
   197)       188.761 1  Rx        0221 -  8    00 00 00 6B 00 60 00 00 
   198)       189.017 1  Rx        01F5 -  8    00 82 00 00 00 00 00 7D 
   199)       189.230 1  Rx        0231 -  8    00 00 00 40 64 FE FE 00 
   200)       189.870 1  Rx        02C0 -  8    FF 7F 00 84 73 00 00 00 
   201)       190.809 1  Rx        0120 -  8    C0 2B C0 5D 70 17 38 A2 
   202)       191.065 1  Rx        0121 -  8    3C 00 00 28 4D 4C 10 02 
   203)       191.278 1  Rx        0122 -  8    13 00 00 00 00 00 00 02 
   204)       193.710 1  Rx        0102 -  8    28 64 00 00 00 00 00 0C 
   205)       198.233 1  Rx        0211 -  8    00 00 00 00 7B EA 63 F2 
   206)       198.489 1  Rx        0213 -  8    00 00 00 00 00 00 60 60 
   207)       198.702 1  Rx        0221 -  8    00 00 00 6B 00 60 00 00 
   208)       198.958 1  Rx        01F5 -  8    00 83 00 00 00 00 00 7C 
   209)       199.214 1  Rx        0231 -  8    00 00 00 40 64 FE FE 00 
   210)       199.897 1  Rx        02C0 -  8    FF 7F 00 84 04 00 00 00 
   211)       200.793 1  Rx        0120 -  8    C0 2B C0 5D 70 17 38 A3 
   212)       201.049 1  Rx        0121 -  8    3C 00 00 28 4D 4C 10 03 
   213)       201.305 1  Rx        0122 -  8    13 00 00 00 00 00 00 03 
   214)       204.419 1  Rx        02F4 -  8    09 44 00 00 00 00 00 00 
   215)       208.174 1  Rx        0211 -  8    00 00 00 00 7B E8 73 E0 
   216)       208.430 1  Rx        0213 -  8    00 00 00 00 00 00 70 70 
   217)       208.686 1  Rx        0221 -  8    00 00 00 6B 00 60 00 00 
   218)       208.942 1  Rx        01F5 -  8    00 80 00 00 00 00 00 7F 
   219)       209.155 1  Rx        0231 -  8    00 00 00 40 64 FE FE 00 
   220)       209.881 1  Rx        02C0 -  8    FF 7F 00 84 15 00 00 00 
   221)       210.819 1  Rx        0120 -  8    C0 2B C0 5D 70 17 38 A4 
   222)       211.033 1  Rx        0121 -  8    3C 00 00 28 4D 4C 10 04 
   223)       211.289 1  Rx        0122 -  8    13 00 00 00 00 00 00 04 
   224)       213.721 1  Rx        0102 -  8    28 64 00 00 00 00 00 0D 
   225)       218.201 1  Rx        0211 -  8    00 00 00 00 7B E8 83 10 
   226)       218.457 1  Rx        0213 -  8    00 00 00 00 00 00 80 80 
   227)       218.670 1  Rx        0221 -  8    00 00 00 6B 00 60 00 00 
   228)       218.926 1  Rx        01F5 -  8    00 81 00 00 00 00 00 7E 
   229)       219.182 1  Rx        0231 -  8    00 00 00 40 64 FE FE 00 
   230)       219.865 1  Rx        02C0 -  8    FF 7F 00 84 26 00 00 00 
   231)       220.803 1  Rx        0120 -  8    C0 2B C0 5D 70 17 38 A5 
   232)       221.059 1  Rx        0121 -  8    3C 00 00 28 4D 4C 10 05 
   233)       221.272 1  Rx        0122 -  8    13 00 00 00 00 00 00 05 
   234)       224.387 1  Rx        02F4 -  8    09 44 00 00 00 00 00 00 
   235)       228.184 1  Rx        0211 -  8    00 00 00 00 7B E8 93 00 
   236)       228.440 1  Rx        0213 -  8    00 00 00 00 00 00 90 90 
   237)       228.696 1  Rx        0221 -  8    00 00 00 6B 00 60 00 00 
   238)       228.952 1  Rx        01F5 -  8    00 82 00 00 00 00 00 7D 
   239)       229.166 1  Rx        0231 -  8    00 00 00 40 64 FE FE 00 
   240)       229.891 1  Rx        02C0 -  8    FF 7F 00 84 37 00 00 00 
   241)       230.787 1  Rx        0120 -  8    C0 2B C0 5D 70 17 38 A6 
   242)       231.043 1  Rx        0121 -  8    3C 00 00 28 4D 4C 10 06 
   243)       231.299 1  Rx        0122 -  8    13 00 00 00 00 00 00 06 
   244)       233.731 1  Rx        0102 -  8    28 64 00 00 00 00 00 0E 
   245)       238.254 1  Rx        0211 -  8    00 00 00 00 7B E9 A3 31 
   246)       238.510 1  Rx        0213 -  8    00 00 00 00 00 00 A0 A0 
   247)       238.766 1  Rx        01F5 -  8    00 83 00 00 00 00 00 7C 
   248)       238.979 1  Rx        0221 -  8    00 00 00 6B 00 60 00 00 
   249)       239.235 1  Rx        0231 -  8    00 00 00 40 64 FE FE 00 
   250)       239.875 1  Rx        02C0 -  8    FF 7F 00 84 C8 00 00 00 
   251)       240.814 1  Rx        0120 -  8    C0 2B C0 5D 70 17 38 A7 
   252)       241.027 1  Rx        0121 -  8    3C 00 00 28 4D 4C 10 07 
   253)       241.283 1  Rx        0122 -  8    13 00 00 00 00 00 00 07 
   254)       244.397 1  Rx        02F4 -  8    09 44 00 00 00 00 00 00 
   255)       248.195 1  Rx        0211 -  8    00 00 00 00 7B E8 B3 20 
   256)       248.451 1  Rx        0213 -  8    00 00 00 00 00 00 B0 B0 
   257)       248.664 1  Rx        0221 -  8    00 00 00 6B 00 60 00 00 
   258)       248.920 1  Rx        01F5 -  8    00 80 00 00 00 00 00 7F 
   259)       249.176 1  Rx        0231 -  8    00 00 00 40 64 FE FE 00 
   260)       249.901 1  Rx        02C0 -  8    FF 7F 00 84 D9 00 00 00 
   261)       250.797 1  Rx        0120 -  8    C0 2B C0 5D 70 17 38 A8 
   262)       251.053 1  Rx        0121 -  8    3C 00 00 28 4D 4C 10 08 
   263)       251.267 1  Rx        0122 -  8    13 00 00 00 00 00 00 08 
   264)       253.699 1  Rx        0102 -  8    28 64 00 00 00 00 00 0F 
   265)       258.179 1  Rx        0211 -  8    00 00 00 00 7B E8 C3 50 
   266)       258.435 1  Rx        0213 -  8    00 00 00 00 00 00 C0 C0 
   267)       258.691 1  Rx        0221 -  8    00 00 00 6B 00 60 00 00 
   268)       258.947 1  Rx        01F5 -  8    00 81 00 00 00 00 00 7E 
   269)       259.160 1  Rx        0231 -  8    00 00 00 40 64 FE FE 00 
   270)       259.885 1  Rx        02C0 -  8    FF 7F 00 84 EA 00 00 00 
   271)       260.781 1  Rx        0120 -  8    C0 2B C0 5D 70 17 38 A9 
   272)       261.037 1  Rx        0121 -  8    3C 00 00 28 4D 4C 10 09 
   273)       261.293 1  Rx        0122 -  8    13 00 00 00 00 00 00 09 
   274)       264.408 1  Rx        02F4 -  8    09 44 00 00 00 00 00 00 
   275)       268.205 1  Rx        0211 -  8    00 00 00 00 7B E8 D3 40 
   276)       268.461 1  Rx        0213 -  8    00 00 00 00 00 00 D0 D0 
   277)       268.674 1  Rx        0221 -  8    00 00 00 6B 00 60 00 00 
   278)       268.930 1  Rx        01F5 -  8    00 82 00 00 00 00 00 7D 
   279)       269.186 1  Rx        0231 -  8    00 00 00 40 64 FE FE 00 
   280)       269.912 1  Rx        02C0 -  8    FF 7F 00 84 FB 00 00 00 
   281)       270.808 1  Rx        0120 -  8    C0 2B C0 5D 70 17 38 AA 
   282)       271.021 1  Rx        0121 -  8    3C 00 00 28 4D 4C 10 0A 
   283)       271.277 1  Rx        0122 -  8    13 00 00 00 00 00 00 0A 
   284)       273.709 1  Rx        0100 -  8    97 0D 88 13 50 00 40 0C 
   285)       273.965 1  Rx        0102 -  8    28 64 00 00 00 00 00 00 
   286)       274.178 1  Rx        0116 -  8    24 5D 00 00 00 08 00 0C 
   287)       274.434 1  Rx        0114 -  8    00 00 67 9A 00 FF FF 0C 
   288)       278.189 1  Rx        0211 -  8    00 00 00 00 7B E8 E3 70 
   289)       278.445 1  Rx        0213 -  8    00 00 00 00 00 00 E0 E0 
   290)       278.701 1  Rx        0221 -  8    00 00 00 6B 00 60 00 00 
   291)       278.914 1  Rx        01F5 -  8    00 83 00 00 00 00 00 7C 
   292)       279.170 1  Rx        0231 -  8    00 00 00 40 64 FE FE 00 
   293)       279.896 1  Rx        02C0 -  8    FF 7F 00 84 8C 00 00 00 
   294)       280.792 1  Rx        0120 -  8    C0 2B C0 5D 70 17 38 AB 
   295)       281.048 1  Rx        0121 -  8    3C 00 00 28 4D 4C 10 0B 
   296)       281.304 1  Rx        0122 -  8    13 00 00 00 00 00 00 0B 
   297)       284.418 1  Rx        02F4 -  8    09 44 00 00 00 00 00 00 
   298)       288.215 1  Rx        0211 -  8    00 00 00 00 7B E8 F3 60 
   299)       288.429 1  Rx        0213 -  8    00 00 00 00 00 00 F0 F0 
   300)       288.685 1  Rx        01F5 -  8    00 80 00 00 00 00 00 7F 
   301)       288.941 1  Rx        0221 -  8    00 00 00 6B 00 60 00 00 
   302)       289.154 1  Rx        0231 -  8    00 00 00 40 64 FE FE 00 
   303)       289.879 1  Rx        02C0 -  8    FF 7F 00 84 9D 00 00 00 
   304)       290.775 1  Rx        0120 -  8    C0 2B C0 5D 70 17 38 AC 
   305)       291.031 1  Rx        0121 -  8    3C 00 00 28 4D 4C 10 0C 
   306)       291.287 1  Rx        0122 -  8    13 00 00 00 00 00 00 0C 
   307)       293.719 1  Rx        0102 -  8    28 64 00 00 00 00 00 01 
   308)       298.199 1  Rx        0211 -  8    00 00 00 00 7B E8 03 90 
   309)       298.455 1  Rx        0213 -  8    00 00 00 00 00 00 00 00 
   310)       298.711 1  Rx        01F5 -  8    00 81 00 00 00 00 00 7E 
   311)       298.967 1  Rx        0221 -  8    00 00 00 6B 00 60 00 00 
   312)       299.181 1  Rx        0231 -  8    00 00 00 40 64 FE FE 00 
   313)       299.906 1  Rx        02C0 -  8    FF 7F 00 84 AE 00 00 00 
   314)       300.802 1  Rx        0120 -  8    C0 2B C0 5D 70 17 38 AD 
   315)       301.015 1  Rx        0121 -  8    3C 00 00 28 4D 4C 10 0D 
   316)       301.271 1  Rx        0122 -  8    13 00 00 00 00 00 00 0D 
   317)       304.386 1  Rx        02F4 -  8    09 44 00 00 00 00 00 00 
   318)       308.183 1  Rx        0211 -  8    00 00 00 00 7B E8 13 80 
   319)       308.439 1  Rx        0213 -  8    00 00 00 00 00 00 10 10 
   320)       308.695 1  Rx        01F5 -  8    00 82 00 00 00 00 00 7D 
   321)       308.951 1  Rx        0221 -  8    00 00 00 6B 00 60 00 00 
   322)       309.164 1  Rx        0231 -  8    00 00 00 40 64 FE FE 00 
   323)       309.890 1  Rx        02C0 -  8    FF 7F 00 84 BF 00 00 00 
   324)       310.786 1  Rx        0120 -  8    C0 2B C0 5D 70 17 38 AE 
   325)       311.042 1  Rx        0121 -  8    3C 00 00 28 4D 4C 10 0E 
   326)       311.255 1  Rx        0122 -  8    13 00 00 00 00 00 00 0E 
   327)       313.730 1  Rx        0102 -  8    28 64 00 00 00 00 00 02 
   328)       318.210 1  Rx        0211 -  8    00 00 00 00 7B E8 23 B0 
   329)       318.466 1  Rx        0213 -  8    00 00 00 00 00 00 20 20 
   330)       318.679 1  Rx        01F5 -  8    00 83 00 00 00 00 00 7C 
   331)       318.935 1  Rx        0221 -  8    00 00 00 6B 00 60 00 00 
   332)       319.191 1  Rx        0231 -  8    00 00 00 40 64 FE FE 00 
   333)       319.916 1  Rx        02C0 -  8    FF 7F 00 84 40 00 00 00 
   334)       320.770 1  Rx        0120 -  8    C0 2B C0 5D 70 17 38 AF 
   335)       321.026 1  Rx        0121 -  8    3C 00 00 28 4D 4C 10 0F 
   336)       321.282 1  Rx        0122 -  8    13 00 00 00 00 00 00 0F 
   337)       324.396 1  Rx        02F4 -  8    09 44 00 00 00 00 00 00 
   338)       328.236 1  Rx        0211 -  8    00 00 00 00 7B E8 33 A0 
   339)       328.449 1  Rx        0213 -  8    00 00 00 00 00 00 30 30 
   340)       328.705 1  Rx        01F5 -  8    00 80 00 00 00 00 00 7F 
   341)       328.961 1  Rx        0221 -  8    00 00 00 6B 00 60 00 00 
   342)       329.217 1  Rx        0231 -  8    00 00 00 40 64 FE FE 00 
   343)       329.900 1  Rx        02C0 -  8    FF 7F 00 84 51 00 00 00 
   344)       330.796 1  Rx        0120 -  8    C0 2B C0 5D 70 17 38 B0 
   345)       331.009 1  Rx        0121 -  8    3C 00 00 28 4D 4C 10 00 
   346)       331.265 1  Rx        0122 -  8    13 00 00 00 00 00 00 00 
   347)       333.697 1  Rx        0102 -  8    28 64 00 00 00 00 00 03 
   348)       338.177 1  Rx        0211 -  8    00 00 00 00 7B E8 43 D0 
   349)       338.433 1  Rx        0213 -  8    00 00 00 00 00 00 40 40 
   350)       338.689 1  Rx        01F5 -  8    00 81 00 00 00 00 00 7E 
   351)       338.945 1  Rx        0221 -  8    00 00 00 6B 00 60 00 00 
   352)       339.159 1  Rx        0231 -  8    00 00 00 40 64 FE FE 00 
   353)       339.884 1  Rx        02C0 -  8    FF 7F 00 84 62 00 00 00 
   354)       340.780 1  Rx        0120 -  8    C0 2B C0 5D 70 17 38 B1 
   355)       341.036 1  Rx        0121 -  8    3C 00 00 28 4D 4C 10 01 
   356)       341.292 1  Rx        0122 -  8    13 00 00 00 00 00 00 01 
   357)       344.407 1  Rx        02F4 -  8    09 44 00 00 00 00 00 00 
   358)       348.204 1  Rx        0211 -  8    00 00 00 00 7B E8 53 C0 
   359)       348.460 1  Rx        0213 -  8    00 00 00 00 00 00 50 50 
   360)       348.673 1  Rx        01F5 -  8    00 82 00 00 00 00 00 7D 
   361)       348.929 1  Rx        0221 -  8    00 00 00 6B 00 60 00 00 
   362)       349.185 1  Rx        0231 -  8    00 00 00 40 64 FE FE 00 
   363)       349.910 1  Rx        02C0 -  8    FF 7F 00 84 73 00 00 00 
   364)       350.806 1  Rx        0120 -  8    C0 2B C0 5D 70 17 38 B2 
   365)       351.020 1  Rx        0121 -  8    3C 00 00 28 4D 4C 10 02 
   366)       351.276 1  Rx        0122 -  8    13 00 00 00 00 00 00 02 
   367)       353.708 1  Rx        0102 -  8    28 64 00 00 00 00 00 04 
   368)       358.230 1  Rx        0211 -  8    00 00 00 00 7B E8 63 F0 
   369)       358.486 1  Rx        0213 -  8    00 00 00 00 00 00 60 60 
   370)       358.700 1  Rx        01F5 -  8    00 83 00 00 00 00 00 7C 
   371)       358.956 1  Rx        0221 -  8    00 00 00 6B 00 60 00 00 
   372)       359.212 1  Rx        0231 -  8    00 00 00 40 64 FE FE 00 
   373)       359.894 1  Rx        02C0 -  8    FF 7F 00 84 04 00 00 00 
   374)       360.790 1  Rx        0120 -  8    C0 2B C0 5D 70 17 38 B3 
   375)       361.046 1  Rx        0121 -  8    3C 00 00 28 4D 4C 10 03 
   376)       361.260 1  Rx        0122 -  8    13 00 00 00 00 00 00 03 
   377)       364.417 1  Rx        02F4 -  8    09 44 00 00 00 00 00 00 
   378)       368.257 1  Rx        0211 -  8    00 00 00 00 7B E8 73 E0 
   379)       368.513 1  Rx        0213 -  8    00 00 00 00 00 00 70 70 
   380)       368.726 1  Rx        01F5 -  8    00 80 00 00 00 00 00 7F 
   381)       368.982 1  Rx        0221 -  8    00 00 00 6B 00 60 00 00 
   382)       369.238 1  Rx        0231 -  8    00 00 00 40 64 FE FE 00 
   383)       369.921 1  Rx        02C0 -  8    FF 7F 00 84 15 00 00 00 
   384)       370.774 1  Rx        0120 -  8    C0 2B C0 5D 70 17 38 B4 
   385)       371.030 1  Rx        0121 -  8    3C 00 00 28 4D 4C 10 04 
   386)       371.286 1  Rx        0122 -  8    13 00 00 00 00 00 00 04 
   387)       373.718 1  Rx        0100 -  8    97 0D 88 13 50 00 40 0D 
   388)       373.974 1  Rx        0102 -  8    28 64 00 00 00 00 00 05 
   389)       374.187 1  Rx        0114 -  8    00 00 67 9A 00 FF FF 0D 
   390)       374.443 1  Rx        0116 -  8    24 5D 00 00 00 08 00 0D 
   391)       374.699 1  Rx        0380 -  8    4B 72 0F 07 41 00 00 06 
   392)       374.913 1  Rx        0105 -  8    00 00 3D 0E 00 00 00 06 
   393)       378.198 1  Rx        0211 -  8    00 00 00 00 7B E8 83 10 
   394)       378.454 1  Rx        0213 -  8    00 00 00 00 00 00 80 80 
   395)       378.710 1  Rx        01F5 -  8    00 81 00 00 00 00 00 7E 
   396)       378.923 1  Rx        0221 -  8    00 00 00 6B 00 60 00 00 
   397)       379.179 1  Rx        0231 -  8    00 00 00 40 64 FE FE 00 
   398)       379.905 1  Rx        02C0 -  8    FF 7F 00 84 26 00 00 00 
   399)       380.801 1  Rx        0120 -  8    C0 2B C0 5D 70 17 38 B5 
   400)       381.014 1  Rx        0121 -  8    3C 00 00 28 4D 4C 10 05 
   401)       381.270 1  Rx        0122 -  8    13 00 00 00 00 00 00 05 
   402)       384.385 1  Rx        02F4 -  8    09 44 00 00 00 00 00 00 
   403)       388.225 1  Rx        0211 -  8    00 00 00 00 7B E8 93 00 
   404)       388.481 1  Rx        0213 -  8    00 00 00 00 00 00 90 90 
   405)       388.737 1  Rx        01F5 -  8    00 82 00 00 00 00 00 7D 
   406)       388.950 1  Rx        0221 -  8    00 00 00 6B 00 60 00 00 
   407)       389.206 1  Rx        0231 -  8    00 00 00 40 64 FE FE 00 
   408)       389.931 1  Rx        02C0 -  8    FF 7F 00 84 37 00 00 00 
   409)       390.785 1  Rx        0120 -  8    C0 2B C0 5D 70 17 38 B6 
   410)       391.040 1  Rx        0121 -  8    3C 00 00 28 4D 4C 10 06 
   411)       391.254 1  Rx        0122 -  8    13 00 00 00 00 00 00 06 
   412)       393.728 1  Rx        0102 -  8    28 64 00 00 00 00 00 06 
   413)       398.208 1  Rx        0211 -  8    00 00 00 00 7B E8 A3 30 
   414)       398.464 1  Rx        0213 -  8    00 00 00 00 00 00 A0 A0 
   415)       398.720 1  Rx        01F5 -  8    00 83 00 00 00 00 00 7C 
   416)       398.934 1  Rx        0221 -  8    00 00 00 6B 00 60 00 00 
   417)       399.190 1  Rx        0231 -  8    00 00 00 40 64 FE FE 00 
   418)       399.915 1  Rx        02C0 -  8    FF 7F 00 84 C8 00 00 00 
   419)       400.768 1  Rx        0120 -  8    C0 2B C0 5D 70 17 38 B7 
   420)       401.024 1  Rx        0121 -  8    3C 00 00 28 4D 4C 10 07 
   421)       401.280 1  Rx        0122 -  8    13 00 00 00 00 00 00 07 
   422)       404.395 1  Rx        02F4 -  8    09 44 00 00 00 00 00 00 
   423)       408.192 1  Rx        0211 -  8    00 00 00 00 7B E8 B3 20 
   424)       408.448 1  Rx        0213 -  8    00 00 00 00 00 00 B0 B0 
   425)       408.704 1  Rx        01F5 -  8    00 80 00 00 00 00 00 7F 
   426)       408.960 1  Rx        0221 -  8    00 00 00 6B 00 60 00 00 
   427)       409.174 1  Rx        0231 -  8    00 00 00 40 64 FE FE 00 
   428)       409.899 1  Rx        02C0 -  8    FF 7F 00 84 D9 00 00 00 
   429)       410.795 1  Rx        0120 -  8    C0 2B C0 5D 70 17 38 B8 
   430)       411.008 1  Rx        0121 -  8    3C 00 00 28 4D 4C 10 08 
   431)       411.264 1  Rx        0122 -  8    13 00 00 00 00 00 00 08 
   432)       413.696 1  Rx        0102 -  8    28 64 00 00 00 00 00 07 
   433)       418.219 1  Rx        0211 -  8    00 00 00 00 7B E8 C3 50 
   434)       418.475 1  Rx        0213 -  8    00 00 00 00 00 00 C0 C0 
   435)       418.731 1  Rx        01F5 -  8    00 81 00 00 00 00 00 7E 
   436)       418.944 1  Rx        0221 -  8    00 00 00 6B 00 60 00 00 
   437)       419.200 1  Rx        0231 -  8    00 00 00 40 64 FE FE 00 
   438)       419.925 1  Rx        02C0 -  8    FF 7F 00 84 EA 00 00 00 
   439)       420.779 1  Rx        0120 -  8    C0 2B C0 5D 70 17 38 B9 
   440)       421.035 1  Rx        0121 -  8    3C 00 00 28 4D 4C 10 09 
   441)       421.248 1  Rx        0122 -  8    13 00 00 00 00 00 00 09 
   442)       424.405 1  Rx        02F4 -  8    09 44 00 00 00 00 00 00 
   443)       428.203 1  Rx        0211 -  8    00 00 00 00 7B E6 D3 4E 
   444)       428.459 1  Rx        0213 -  8    00 00 00 00 00 00 D0 D0 
   445)       428.672 1  Rx        01F5 -  8    00 82 00 00 00 00 00 7D 
   446)       428.928 1  Rx        0221 -  8    00 00 00 6B 00 60 00 00 
   447)       429.184 1  Rx        0231 -  8    00 00 00 40 64 FE FE 00 
   448)       429.909 1  Rx        02C0 -  8    FF 7F 00 84 FB 00 00 00 
   449)       430.763 1  Rx        0120 -  8    C0 2B C0 5D 70 17 38 BA 
   450)       431.019 1  Rx        0121 -  8    3A 00 00 28 4D 4C 10 0A 
   451)       431.275 1  Rx        0122 -  8    13 00 00 00 00 00 00 0A 
   452)       433.706 1  Rx        0102 -  8    28 64 00 00 00 00 00 08 
   453)       438.186 1  Rx        0211 -  8    00 00 00 00 7B E7 E3 7F 
   454)       438.442 1  Rx        0213 -  8    00 00 00 00 00 00 E0 E0 
   455)       438.698 1  Rx        01F5 -  8    00 83 00 00 00 00 00 7C 
   456)       438.954 1  Rx        0221 -  8    00 00 00 6B 00 60 00 00 
   457)       439.168 1  Rx        0231 -  8    00 00 00 40 64 FE FE 00 
   458)       439.936 1  Rx        02C0 -  8    FF 7F 00 84 8C 00 00 00 
   459)       440.789 1  Rx        0120 -  8    C0 2B C0 5D 70 17 38 BB 
   460)       441.045 1  Rx        0121 -  8    3C 00 00 28 4D 4C 10 0B 
   461)       441.258 1  Rx        0122 -  8    13 00 00 00 00 00 00 0B 
   462)       444.416 1  Rx        02F4 -  8    09 44 00 00 00 00 00 00 
   463)       448.213 1  Rx        0211 -  8    00 00 00 00 7B E7 F3 6F 
   464)       448.469 1  Rx        0213 -  8    00 00 00 00 00 00 F0 F0 
   465)       448.725 1  Rx        01F5 -  8    00 80 00 00 00 00 00 7F 
   466)       448.938 1  Rx        0221 -  8    00 00 00 6B 00 60 00 00 
   467)       449.194 1  Rx        0231 -  8    00 00 00 40 64 FE FE 00 
   468)       449.920 1  Rx        02C0 -  8    FF 7F 00 84 9D 00 00 00 
   469)       450.773 1  Rx        0120 -  8    C0 2B C0 5D 70 17 38 BC 
   470)       451.029 1  Rx        0121 -  8    3C 00 00 28 4D 4C 10 0C 
   471)       451.285 1  Rx        0122 -  8    13 00 00 00 00 00 00 0C 
   472)       453.717 1  Rx        0102 -  8    28 64 00 00 00 00 00 09 
   473)       458.197 1  Rx        0211 -  8    00 00 00 00 7B E8 03 90 
   474)       458.453 1  Rx        0213 -  8    00 00 00 00 00 00 00 00 
   475)       458.709 1  Rx        01F5 -  8    00 81 00 00 00 00 00 7E 
   476)       458.922 1  Rx        0221 -  8    00 00 00 6B 00 60 00 00 
   477)       459.178 1  Rx        0231 -  8    00 00 00 40 64 FE FE 00 
   478)       459.903 1  Rx        02C0 -  8    FF 7F 00 84 AE 00 00 00 
   479)       460.799 1  Rx        0120 -  8    C0 2B C0 5D 70 17 38 BD 
   480)       461.013 1  Rx        0121 -  8    3A 00 00 28 4D 4C 10 0D 
   481)       461.269 1  Rx        0122 -  8    13 00 00 00 00 00 00 0D 
   482)       464.383 1  Rx        02F4 -  8    09 44 00 00 00 00 00 00 
   483)       468.223 1  Rx        0211 -  8    00 00 00 00 7B E8 13 80 
   484)       468.479 1  Rx        0213 -  8    00 00 00 00 00 00 10 10 
   485)       468.693 1  Rx        01F5 -  8    00 82 00 00 00 00 00 7D 
   486)       468.949 1  Rx        0221 -  8    00 00 00 6B 00 60 00 00 
   487)       469.205 1  Rx        0231 -  8    00 00 00 40 64 FE FE 00 
   488)       469.930 1  Rx        02C0 -  8    FF 7F 00 84 BF 00 00 00 
   489)       470.783 1  Rx        0120 -  8    C0 2B C0 5D 70 17 38 BE 
   490)       471.039 1  Rx        0121 -  8    3C 00 00 28 4D 4C 10 0E 
   491)       471.253 1  Rx        0122 -  8    13 00 00 00 00 00 00 0E 
   492)       473.685 1  Rx        0100 -  8    97 0D 88 13 50 00 40 0E 
   493)       473.941 1  Rx        0102 -  8    28 64 00 00 00 00 00 0A 
   494)       474.197 1  Rx        0116 -  8    24 5D 00 00 00 08 00 0E 
   495)       474.453 1  Rx        0114 -  8    00 00 67 9A 00 FF FF 0E 
   496)       478.207 1  Rx        0211 -  8    00 00 00 00 7B E8 23 B0 
   497)       478.463 1  Rx        0213 -  8    00 00 00 00 00 00 20 20 
   498)       478.719 1  Rx        01F5 -  8    00 83 00 00 00 00 00 7C 
   499)       478.975 1  Rx        0221 -  8    00 00 00 6B 00 60 00 00 
   500)       479.188 1  Rx        0231 -  8    00 00 00 40 64 FE FE 00 
   501)       479.914 1  Rx        02C0 -  8    FF 7F 00 84 40 00 00 00 
   502)       480.767 1  Rx        0120 -  8    C0 2B C0 5D 70 17 38 BF 
   503)       481.023 1  Rx        0121 -  8    3C 00 00 28 4D 4C 10 0F 
   504)       481.279 1  Rx        0122 -  8    13 00 00 00 00 00 00 0F 
   505)       484.394 1  Rx        02F4 -  8    09 44 00 00 00 00 00 00 
   506)       488.191 1  Rx        0211 -  8    00 00 00 00 7B E8 33 A0 
   507)       488.447 1  Rx        0213 -  8    00 00 00 00 00 00 30 30 
   508)       488.703 1  Rx        01F5 -  8    00 80 00 00 00 00 00 7F 
   509)       488.959 1  Rx        0221 -  8    00 00 00 6B 00 60 00 00 
   510)       489.172 1  Rx        0231 -  8    00 00 00 40 64 FE FE 00 
   511)       489.940 1  Rx        02C0 -  8    FF 7F 00 84 51 00 00 00 
   512)       490.794 1  Rx        0120 -  8    C0 2B C0 5D 70 17 38 C0 
   513)       491.007 1  Rx        0121 -  8    3A 00 00 28 4D 4C 10 00 
   514)       491.263 1  Rx        0122 -  8    13 00 00 00 00 00 00 00 
   515)       493.738 1  Rx        0102 -  8    28 64 00 00 00 00 00 0B 
   516)       498.217 1  Rx        0211 -  8    00 00 00 00 7B E8 43 D0 
   517)       498.473 1  Rx        01F5 -  8    00 81 00 00 00 00 00 7E 
   518)       498.729 1  Rx        0213 -  8    00 00 00 00 00 00 40 40 
   519)       498.943 1  Rx        0221 -  8    00 00 00 6B 00 60 00 00 
   520)       499.199 1  Rx        0231 -  8    00 00 00 40 64 FE FE 00 
   521)       499.924 1  Rx        02C0 -  8    FF 7F 00 84 62 00 00 00 
   522)       500.777 1  Rx        0120 -  8    C0 2B C0 5D 70 17 38 C1 
   523)       501.033 1  Rx        0121 -  8    3C 00 00 28 4D 4C 10 01 
   524)       501.289 1  Rx        0122 -  8    13 00 00 00 00 00 00 01 
   525)       504.404 1  Rx        02F4 -  8    09 44 00 00 00 00 00 00 
   526)       508.244 1  Rx        0211 -  8    00 00 00 00 7B E8 53 C0 
   527)       508.457 1  Rx        01F5 -  8    00 82 00 00 00 00 00 7D 
   528)       508.713 1  Rx        0213 -  8    00 00 00 00 00 00 50 50 
   529)       508.969 1  Rx        0221 -  8    00 00 00 6B 00 60 00 00 
   530)       509.183 1  Rx        0231 -  8    00 00 00 40 64 FE FE 00 
   531)       509.908 1  Rx        02C0 -  8    FF 7F 00 84 73 00 00 00 
   532)       510.761 1  Rx        0120 -  8    C0 2B C0 5D 70 17 38 C2 
   533)       511.017 1  Rx        0121 -  8    3C 00 00 28 4D 4C 10 02 
   534)       511.273 1  Rx        0122 -  8    13 00 00 00 00 00 00 02 
   535)       513.705 1  Rx        0102 -  8    28 64 00 00 00 00 00 0C 
   536)       518.228 1  Rx        0211 -  8    00 00 00 00 7B E8 63 F0 
   537)       518.484 1  Rx        01F5 -  8    00 83 00 00 00 00 00 7C 
   538)       518.697 1  Rx        0213 -  8    00 00 00 00 00 00 60 60 
   539)       518.953 1  Rx        0221 -  8    00 00 00 6B 00 60 00 00 
   540)       519.209 1  Rx        0231 -  8    00 00 00 40 64 FE FE 00 
   541)       519.934 1  Rx        02C0 -  8    FF 7F 00 84 04 00 00 00 
   542)       520.830 1  Rx        0120 -  8    C0 2B C0 5D 70 17 38 C3 
   543)       521.044 1  Rx        0121 -  8    3C 00 00 28 4D 4C 10 03 
   544)       521.300 1  Rx        0122 -  8    13 00 00 00 00 00 00 03 
   545)       524.372 1  Rx        02F4 -  8    09 44 00 00 00 00 00 00 
   546)       528.254 1  Rx        0211 -  8    00 00 00 00 7B E9 73 E1 
   547)       528.510 1  Rx        01F5 -  8    00 80 00 00 00 00 00 7F 
   548)       528.766 1  Rx        0213 -  8    00 00 00 00 00 00 70 70 
   549)       529.022 1  Rx        0221 -  8    00 00 00 6B 00 60 00 00 
   550)       529.236 1  Rx        0231 -  8    00 00 00 40 64 FE FE 00 
   551)       529.918 1  Rx        02C0 -  8    FF 7F 00 84 15 00 00 00 
   552)       530.772 1  Rx        0120 -  8    C0 2B C0 5D 70 17 38 C4 
   553)       531.028 1  Rx        0121 -  8    3C 00 00 28 4D 4C 10 04 
   554)       531.284 1  Rx        0122 -  8    13 00 00 00 00 00 00 04 
   555)       533.716 1  Rx        0102 -  8    28 64 00 00 00 00 00 0D 
   556)       538.238 1  Rx        0211 -  8    00 00 00 00 7B E8 83 10 
   557)       538.494 1  Rx        01F5 -  8    00 81 00 00 00 00 00 7E 
   558)       538.750 1  Rx        0213 -  8    00 00 00 00 00 00 80 80 
   559)       539.006 1  Rx        0221 -  8    00 00 00 6B 00 60 00 00 
   560)       539.220 1  Rx        0231 -  8    00 00 00 40 64 FE FE 00 
   561)       539.945 1  Rx        02C0 -  8    FF 7F 00 84 26 00 00 00 
   562)       540.798 1  Rx        0120 -  8    C0 2B C0 5D 70 17 38 C5 
   563)       541.011 1  Rx        0121 -  8    3C 00 00 28 4D 4C 10 05 
   564)       541.267 1  Rx        0122 -  8    13 00 00 00 00 00 00 05 
   565)       544.382 1  Rx        02F4 -  8    09 44 00 00 00 00 00 00 
   566)       548.265 1  Rx        0211 -  8    00 00 00 00 7B E8 93 00 
   567)       548.521 1  Rx        01F5 -  8    00 82 00 00 00 00 00 7D 
   568)       548.734 1  Rx        0213 -  8    00 00 00 00 00 00 90 90 
   569)       548.990 1  Rx        0221 -  8    00 00 00 6B 00 60 00 00 
   570)       549.246 1  Rx        0231 -  8    00 00 00 40 64 FE FE 00 
   571)       549.929 1  Rx        02C0 -  8    FF 7F 00 84 37 00 00 00 
   572)       550.825 1  Rx        0120 -  8    C0 2B C0 5D 70 17 38 C6 
   573)       551.038 1  Rx        0121 -  8    3C 00 00 28 4D 4C 10 06 
   574)       551.294 1  Rx        0122 -  8    13 00 00 00 00 00 00 06 
   575)       553.726 1  Rx        0102 -  8    28 64 00 00 00 00 00 0E 
   576)       558.249 1  Rx        0211 -  8    00 00 00 00 7B E8 A3 30 
   577)       558.462 1  Rx        01F5 -  8    00 83 00 00 00 00 00 7C 
   578)       558.718 1  Rx        0213 -  8    00 00 00 00 00 00 A0 A0 
   579)       558.974 1  Rx        0221 -  8    00 00 00 6B 00 60 00 00 
   580)       559.230 1  Rx        0231 -  8    00 00 00 40 64 FE FE 00 
   581)       559.955 1  Rx        02C0 -  8    FF 7F 00 84 C8 00 00 00 
   582)       560.809 1  Rx        0120 -  8    C0 2B C0 5D 70 17 38 C7 
   583)       561.065 1  Rx        0121 -  8    3C 00 00 28 4D 4C 10 07 
   584)       561.278 1  Rx        0122 -  8    13 00 00 00 00 00 00 07 
   585)       564.392 1  Rx        02F4 -  8    09 44 00 00 00 00 00 00 
   586)       568.275 1  Rx        0211 -  8    00 00 00 00 7B E9 B3 21 
   587)       568.531 1  Rx        01F5 -  8    00 80 00 00 00 00 00 7F 
   588)       568.787 1  Rx        0213 -  8    00 00 00 00 00 00 B0 B0 
   589)       569.043 1  Rx        0221 -  8    00 00 00 6B 00 60 00 00 
   590)       569.256 1  Rx        0231 -  8    00 00 00 40 64 FE FE 00 
   591)       569.939 1  Rx        02C0 -  8    FF 7F 00 84 D9 00 00 00 
   592)       570.835 1  Rx        0120 -  8    C0 2B C0 5D 70 17 38 C8 
   593)       571.048 1  Rx        0121 -  8    3C 00 00 28 4D 4C 10 08 
   594)       571.304 1  Rx        0122 -  8    13 00 00 00 00 00 00 08 
   595)       573.694 1  Rx        0100 -  8    97 0D 88 13 50 00 40 0F 
   596)       573.950 1  Rx        0102 -  8    28 64 00 00 00 00 00 0F 
   597)       574.206 1  Rx        0114 -  8    00 00 67 9A 00 FF FF 0F 
   598)       574.419 1  Rx        0116 -  8    24 5D 00 00 00 08 00 0F 
   599)       574.675 1  Rx        0380 -  8    4C 72 0F 08 41 00 00 07 
   600)       574.931 1  Rx        0105 -  8    00 00 3D 0E 00 00 00 07 
   601)       578.259 1  Rx        0211 -  8    00 00 00 00 7B E8 C3 50 
   602)       578.515 1  Rx        01F5 -  8    00 81 00 00 00 00 00 7E 
   603)       578.771 1  Rx        0213 -  8    00 00 00 00 00 00 C0 C0 
   604)       578.984 1  Rx        0221 -  8    00 00 00 6B 00 60 00 00 
   605)       579.240 1  Rx        0231 -  8    00 00 00 40 64 FE FE 00 
   606)       579.923 1  Rx        02C0 -  8    FF 7F 00 84 EA 00 00 00 
   607)       580.819 1  Rx        0120 -  8    C0 2B C0 5D 70 17 38 C9 
   608)       581.032 1  Rx        0121 -  8    3A 00 00 28 4D 4C 10 09 
   609)       581.288 1  Rx        0122 -  8    13 00 00 00 00 00 00 09 
   610)       584.403 1  Rx        02F4 -  8    09 44 00 00 00 00 00 00 
   611)       588.243 1  Rx        0211 -  8    00 00 00 00 7B E8 D3 40 
   612)       588.499 1  Rx        01F5 -  8    00 82 00 00 00 00 00 7D 
   613)       588.712 1  Rx        0213 -  8    00 00 00 00 00 00 D0 D0 
   614)       588.968 1  Rx        0221 -  8    00 00 00 6B 00 60 00 00 
   615)       589.224 1  Rx        0231 -  8    00 00 00 40 64 FE FE 00 
   616)       589.949 1  Rx        02C0 -  8    FF 7F 00 84 FB 00 00 00 
   617)       590.803 1  Rx        0120 -  8    C0 2B C0 5D 70 17 38 CA 
   618)       591.059 1  Rx        0121 -  8    3A 00 00 28 4D 4C 10 0A 
   619)       591.315 1  Rx        0122 -  8    13 00 00 00 00 00 00 0A 
   620)       593.704 1  Rx        0102 -  8    28 64 00 00 00 00 00 00 
   621)       598.269 1  Rx        0211 -  8    00 00 00 00 7B E8 E3 70 
   622)       598.525 1  Rx        01F5 -  8    00 83 00 00 00 00 00 7C 
   623)       598.739 1  Rx        0213 -  8    00 00 00 00 00 00 E0 E0 
   624)       598.995 1  Rx        0221 -  8    00 00 00 6B 00 60 00 00 
   625)       599.251 1  Rx        0231 -  8    00 00 00 40 64 FE FE 00 
   626)       599.933 1  Rx        02C0 -  8    FF 7F 00 84 8C 00 00 00 
   627)       600.829 1  Rx        0120 -  8    C0 2B C0 5D 70 17 38 CB 
   628)       601.043 1  Rx        0121 -  8    3C 00 00 28 4D 4C 10 0B 
   629)       601.299 1  Rx        0122 -  8    13 00 00 00 00 00 00 0B 
   630)       604.413 1  Rx        02F4 -  8    09 44 00 00 00 00 00 00 
   631)       608.253 1  Rx        0211 -  8    00 00 00 00 7B E8 F3 60 
   632)       608.509 1  Rx        01F5 -  8    00 80 00 00 00 00 00 7F 
   633)       608.722 1  Rx        0213 -  8    00 00 00 00 00 00 F0 F0 
   634)       608.978 1  Rx        0221 -  8    00 00 00 6B 00 60 00 00 
   635)       609.234 1  Rx        0231 -  8    00 00 00 40 64 FE FE 00 
   636)       609.960 1  Rx        02C0 -  8    FF 7F 00 84 9D 00 00 00 
   637)       610.813 1  Rx        0120 -  8    C0 2B C0 5D 70 17 38 CC 
   638)       611.069 1  Rx        0121 -  8    3C 00 00 28 4D 4C 10 0C 
   639)       611.325 1  Rx        0122 -  8    13 00 00 00 00 00 00 0C 
   640)       613.714 1  Rx        0102 -  8    28 64 00 00 00 00 00 01 
   641)       618.237 1  Rx        0211 -  8    00 00 00 00 7B E8 03 90 
   642)       618.493 1  Rx        01F5 -  8    00 81 00 00 00 00 00 7E 
   643)       618.749 1  Rx        0213 -  8    00 00 00 00 00 00 00 00 
   644)       618.962 1  Rx        0221 -  8    00 00 00 6B 00 60 00 00 
   645)       619.218 1  Rx        0231 -  8    00 00 00 40 64 FE FE 00 
   646)       619.944 1  Rx        02C0 -  8    FF 7F 00 84 AE 00 00 00 
   647)       620.840 1  Rx        0120 -  8    C0 2B C0 5D 70 17 38 CD 
   648)       621.053 1  Rx        0121 -  8    3C 00 00 28 4D 4C 10 0D 
   649)       621.309 1  Rx        0122 -  8    13 00 00 00 00 00 00 0D 
   650)       624.381 1  Rx        02F4 -  8    09 44 00 00 00 00 00 00 
   651)       628.263 1  Rx        0211 -  8    00 00 00 00 7B E8 13 80 
   652)       628.519 1  Rx        01F5 -  8    00 82 00 00 00 00 00 7D 
   653)       628.775 1  Rx        0213 -  8    00 00 00 00 00 00 10 10 
   654)       628.989 1  Rx        0221 -  8    00 00 00 6B 00 60 00 00 
   655)       629.245 1  Rx        0231 -  8    00 00 00 40 64 FE FE 00 
   656)       629.927 1  Rx        02C0 -  8    FF 7F 00 84 BF 00 00 00 
   657)       630.823 1  Rx        0120 -  8    C0 2B C0 5D 70 17 38 CE 
   658)       631.037 1  Rx        0121 -  8    3A 00 00 28 4D 4C 10 0E 
   659)       631.293 1  Rx        0122 -  8    13 00 00 00 00 00 00 0E 
   660)       633.725 1  Rx        0102 -  8    28 64 00 00 00 00 00 02 
   661)       638.247 1  Rx        0211 -  8    00 00 00 00 7B E8 23 B0 
   662)       638.503 1  Rx        01F5 -  8    00 83 00 00 00 00 00 7C 
   663)       638.717 1  Rx        0213 -  8    00 00 00 00 00 00 20 20 
   664)       638.973 1  Rx        0221 -  8    00 00 00 6B 00 60 00 00 
   665)       639.229 1  Rx        0231 -  8    00 00 00 40 64 FE FE 00 
   666)       639.954 1  Rx        02C0 -  8    FF 7F 00 84 40 00 00 00 
   667)       640.807 1  Rx        0120 -  8    C0 2B C0 5D 70 17 38 CF 
   668)       641.063 1  Rx        0121 -  8    3C 00 00 28 4D 4C 10 0F 
   669)       641.319 1  Rx        0122 -  8    13 00 00 00 00 00 00 0F 
   670)       644.391 1  Rx        02F4 -  8    09 44 00 00 00 00 00 00 
   671)       648.231 1  Rx        0211 -  8    00 00 00 00 7B E8 33 A0 
   672)       648.487 1  Rx        01F5 -  8    00 80 00 00 00 00 00 7F 
   673)       648.743 1  Rx        0213 -  8    00 00 00 00 00 00 30 30 
   674)       648.999 1  Rx        0221 -  8    00 00 00 6B 00 60 00 00 
   675)       649.212 1  Rx        0231 -  8    00 00 00 40 64 FE FE 00 
   676)       649.938 1  Rx        02C0 -  8    FF 7F 00 84 51 00 00 00 
   677)       650.834 1  Rx        0120 -  8    C0 2B C0 5D 70 17 38 D0 
   678)       651.047 1  Rx        0121 -  8    3C 00 00 28 4D 4C 10 00 
   679)       651.303 1  Rx        0122 -  8    13 00 00 00 00 00 00 00 
   680)       653.735 1  Rx        0102 -  8    28 64 00 00 00 00 00 03 
   681)       658.258 1  Rx        0211 -  8    00 00 00 00 7B E8 43 D0 
   682)       658.514 1  Rx        01F5 -  8    00 81 00 00 00 00 00 7E 
   683)       658.770 1  Rx        0213 -  8    00 00 00 00 00 00 40 40 
   684)       658.983 1  Rx        0221 -  8    00 00 00 6B 00 60 00 00 
   685)       659.239 1  Rx        0231 -  8    00 00 00 40 64 FE FE 00 
   686)       659.964 1  Rx        02C0 -  8    FF 7F 00 84 62 00 00 00 
   687)       660.818 1  Rx        0120 -  8    C0 2B C0 5D 70 17 38 D1 
   688)       661.074 1  Rx        0121 -  8    3A 00 00 28 4D 4C 10 01 
   689)       661.287 1  Rx        0122 -  8    13 00 00 00 00 00 00 01 
   690)       664.402 1  Rx        02F4 -  8    09 44 00 00 00 00 00 00 
   691)       668.241 1  Rx        0211 -  8    00 00 00 00 7B E8 53 C0 
   692)       668.497 1  Rx        01F5 -  8    00 82 00 00 00 00 00 7D 
   693)       668.711 1  Rx        0213 -  8    00 00 00 00 00 00 50 50 
   694)       668.967 1  Rx        0221 -  8    00 00 00 6B 00 60 00 00 
   695)       669.223 1  Rx        0231 -  8    00 00 00 40 64 FE FE 00 
   696)       669.948 1  Rx        02C0 -  8    FF 7F 00 84 73 00 00 00 
   697)       670.801 1  Rx        0120 -  8    C0 2B C0 5D 70 17 38 D2 
   698)       671.057 1  Rx        0121 -  8    3C 00 00 28 4D 4C 10 02 
   699)       671.313 1  Rx        0122 -  8    13 00 00 00 00 00 00 02 
   700)       673.703 1  Rx        0100 -  8    97 0D 88 13 50 00 40 00 
   701)       673.959 1  Rx        0102 -  8    28 64 00 00 00 00 00 04 
   702)       674.172 1  Rx        0113 -  8    01 42 14 40 FF FF 41 0C 
   703)       674.428 1  Rx        0114 -  8    00 00 67 9A 00 FF FF 00 
   704)       674.684 1  Rx        0116 -  8    24 5D 00 00 00 08 00 00 
   705)       674.897 1  Rx        0112 -  8    05 73 0F 4D 6C 0F 00 0C 
   706)       678.225 1  Rx        0211 -  8    00 00 00 00 7B E8 63 F0 
   707)       678.481 1  Rx        01F5 -  8    00 83 00 00 00 00 00 7C 
   708)       678.737 1  Rx        0213 -  8    00 00 00 00 00 00 60 60 
   709)       678.993 1  Rx        0221 -  8    00 00 00 6B 00 60 00 00 
   710)       679.207 1  Rx        0231 -  8    00 00 00 40 64 FE FE 00 
   711)       679.975 1  Rx        02C0 -  8    FF 7F 00 84 04 00 00 00 
   712)       680.828 1  Rx        0120 -  8    C0 2B C0 5D 70 17 38 D3 
   713)       681.084 1  Rx        0121 -  8    3C 00 00 28 4D 4C 10 03 
   714)       681.297 1  Rx        0122 -  8    13 00 00 00 00 00 00 03 
   715)       684.412 1  Rx        02F4 -  8    09 44 00 00 00 00 00 00 
   716)       688.209 1  Rx        01F5 -  8    00 80 00 00 00 00 00 7F 
   717)       688.465 1  Rx        0211 -  8    00 00 00 00 7B E8 73 E0 
   718)       688.721 1  Rx        0213 -  8    00 00 00 00 00 00 70 70 
   719)       688.935 1  Rx        0221 -  8    00 00 00 6B 00 60 00 00 
   720)       689.191 1  Rx        0231 -  8    00 00 00 40 64 FE FE 00 
   721)       689.958 1  Rx        02C0 -  8    FF 7F 00 84 15 00 00 00 
   722)       690.812 1  Rx        0120 -  8    C0 2B C0 5D 70 17 38 D4 
   723)       691.068 1  Rx        0121 -  8    3C 00 00 28 4D 4C 10 04 
   724)       691.324 1  Rx        0122 -  8    13 00 00 00 00 00 00 04 
   725)       693.713 1  Rx        0102 -  8    28 64 00 00 00 00 00 05 
   726)       698.236 1  Rx        01F5 -  8    00 81 00 00 00 00 00 7E 
   727)       698.449 1  Rx        0211 -  8    00 00 00 00 7B E8 83 10 
   728)       698.705 1  Rx        0213 -  8    00 00 00 00 00 00 80 80 
   729)       698.961 1  Rx        0221 -  8    00 00 00 6B 00 60 00 00 
   730)       699.174 1  Rx        0231 -  8    00 00 00 40 64 FE FE 00 
   731)       699.942 1  Rx        02C0 -  8    FF 7F 00 84 26 00 00 00 
   732)       700.838 1  Rx        0120 -  8    C0 2B C0 5D 70 17 38 D5 
   733)       701.052 1  Rx        0121 -  8    3C 00 00 28 4D 4C 10 05 
   734)       701.308 1  Rx        0122 -  8    13 00 00 00 00 00 00 05 
   735)       704.380 1  Rx        02F4 -  8    09 44 00 00 00 00 00 00 
   736)       708.220 1  Rx        01F5 -  8    00 82 00 00 00 00 00 7D 
   737)       708.433 1  Rx        0211 -  8    00 00 00 00 7B E8 93 00 
   738)       708.689 1  Rx        0213 -  8    00 00 00 00 00 00 90 90 
   739)       708.945 1  Rx        0221 -  8    00 00 00 6B 00 60 00 00 
   740)       709.201 1  Rx        0231 -  8    00 00 00 40 64 FE FE 00 
   741)       709.969 1  Rx        02C0 -  8    FF 7F 00 84 37 00 00 00 
   742)       710.822 1  Rx        0120 -  8    C0 2B C0 5D 70 17 38 D6 
   743)       711.078 1  Rx        0121 -  8    3A 00 00 28 4D 4C 10 06 
   744)       711.291 1  Rx        0122 -  8    13 00 00 00 00 00 00 06 
   745)       713.723 1  Rx        0102 -  8    28 64 00 00 00 00 00 06 
   746)       718.203 1  Rx        01F5 -  8    00 83 00 00 00 00 00 7C 
   747)       718.459 1  Rx        0211 -  8    00 00 00 00 7B E8 A3 30 
   748)       718.673 1  Rx        0213 -  8    00 00 00 00 00 00 A0 A0 
   749)       718.929 1  Rx        0221 -  8    00 00 00 6B 00 60 00 00 
   750)       719.185 1  Rx        0231 -  8    00 00 00 40 64 FE FE 00 
   751)       719.953 1  Rx        02C0 -  8    FF 7F 00 84 C8 00 00 00 
   752)       720.806 1  Rx        0120 -  8    C0 2B C0 5D 70 17 38 D7 
   753)       721.062 1  Rx        0121 -  8    3C 00 00 28 4D 4C 10 07 
   754)       721.318 1  Rx        0122 -  8    13 00 00 00 00 00 00 07 
   755)       724.390 1  Rx        02F4 -  8    09 44 00 00 00 00 00 00 
   756)       728.187 1  Rx        01F5 -  8    00 80 00 00 00 00 00 7F 
   757)       728.443 1  Rx        0211 -  8    00 00 00 00 7B E8 B3 20 
   758)       728.657 1  Rx        0213 -  8    00 00 00 00 00 00 B0 B0 
   759)       728.913 1  Rx        0221 -  8    00 00 00 6B 00 60 00 00 
   760)       729.169 1  Rx        0231 -  8    00 00 00 40 64 FE FE 00 
   761)       729.979 1  Rx        02C0 -  8    FF 7F 00 84 D9 00 00 00 
   762)       730.833 1  Rx        0120 -  8    C0 2B C0 5D 70 17 38 D8 
   763)       731.046 1  Rx        0121 -  8    3C 00 00 28 4D 4C 10 08 
   764)       731.302 1  Rx        0122 -  8    13 00 00 00 00 00 00 08 
   765)       733.734 1  Rx        0102 -  8    28 64 00 00 00 00 00 07 
   766)       738.171 1  Rx        01F5 -  8    00 81 00 00 00 00 00 7E 
   767)       738.427 1  Rx        0211 -  8    00 00 00 00 7B E8 C3 50 
   768)       738.683 1  Rx        0213 -  8    00 00 00 00 00 00 C0 C0 
   769)       738.896 1  Rx        0221 -  8    00 00 00 6B 00 60 00 00 
   770)       739.152 1  Rx        0231 -  8    00 00 00 40 64 FE FE 00 
   771)       739.963 1  Rx        02C0 -  8    FF 7F 00 84 EA 00 00 00 
   772)       740.816 1  Rx        0120 -  8    C0 2B C0 5D 70 17 38 D9 
   773)       741.072 1  Rx        0121 -  8    3A 00 00 28 4D 4C 10 09 
   774)       741.286 1  Rx        0122 -  8    13 00 00 00 00 00 00 09 
   775)       744.400 1  Rx        02F4 -  8    09 44 00 00 00 00 00 00 
   776)       748.155 1  Rx        01F5 -  8    00 82 00 00 00 00 00 7D 
   777)       748.411 1  Rx        0211 -  8    00 00 00 00 7B E8 D3 40 
   778)       748.667 1  Rx        0213 -  8    00 00 00 00 00 00 D0 D0 
   779)       748.880 1  Rx        0221 -  8    00 00 00 6B 00 60 00 00 
   780)       749.136 1  Rx        0231 -  8    00 00 00 40 64 FE FE 00 
   781)       749.947 1  Rx        02C0 -  8    FF 7F 00 84 FB 00 00 00 
   782)       750.800 1  Rx        0120 -  8    C0 2B C0 5D 70 17 38 DA 
   783)       751.056 1  Rx        0121 -  8    3A 00 00 28 4D 4C 10 0A 
   784)       751.312 1  Rx        0122 -  8    13 00 00 00 00 00 00 0A 
   785)       753.701 1  Rx        0102 -  8    28 64 00 00 00 00 00 08 
   786)       758.139 1  Rx        01F5 -  8    00 83 00 00 00 00 00 7C 
   787)       758.395 1  Rx        0211 -  8    00 00 00 00 7B E8 E3 70 
   788)       758.651 1  Rx        0213 -  8    00 00 00 00 00 00 E0 E0 
   789)       758.864 1  Rx        0221 -  8    00 00 00 6B 00 60 00 00 
   790)       759.120 1  Rx        0231 -  8    00 00 00 40 64 FE FE 00 
   791)       759.973 1  Rx        02C0 -  8    FF 7F 00 84 8C 00 00 00 
   792)       760.827 1  Rx        0120 -  8    C0 2B C0 5D 70 17 38 DB 
   793)       761.040 1  Rx        0121 -  8    3A 00 00 28 4D 4C 10 0B 
   794)       761.296 1  Rx        0122 -  8    13 00 00 00 00 00 00 0B 
   795)       764.368 1  Rx        02F4 -  8    09 44 00 00 00 00 00 00 
   796)       768.123 1  Rx        01F5 -  8    00 80 00 00 00 00 00 7F 
   797)       768.379 1  Rx        0211 -  8    00 00 00 00 7B E8 F3 60 
   798)       768.635 1  Rx        0213 -  8    00 00 00 00 00 00 F0 F0 
   799)       768.848 1  Rx        0221 -  8    00 00 00 6B 00 60 00 00 
   800)       769.104 1  Rx        0231 -  8    00 00 00 40 64 FE FE 00 
   801)       769.957 1  Rx        02C0 -  8    FF 7F 00 84 9D 00 00 00 
   802)       770.811 1  Rx        0120 -  8    C0 2B C0 5D 70 17 38 DC 
   803)       771.067 1  Rx        0121 -  8    3C 00 00 28 4D 4C 10 0C 
   804)       771.280 1  Rx        0122 -  8    13 00 00 00 00 00 00 0C 
   805)       773.712 1  Rx        0100 -  8    97 0D 88 13 50 00 40 01 
   806)       773.968 1  Rx        0102 -  8    28 64 00 00 00 00 00 09 
   807)       774.181 1  Rx        0114 -  8    00 00 67 9A 00 FF FF 01 
   808)       774.437 1  Rx        0116 -  8    24 5D 00 00 00 08 00 01 
   809)       774.693 1  Rx        0380 -  8    4D 72 0F 09 41 00 00 08 
   810)       774.906 1  Rx        0105 -  8    00 00 3D 0E 00 00 00 08 
   811)       778.106 1  Rx        01F5 -  8    00 81 00 00 00 00 00 7E 
   812)       778.362 1  Rx        0211 -  8    00 00 00 00 7B E8 03 90 
   813)       778.618 1  Rx        0213 -  8    00 00 00 00 00 00 00 00 
   814)       778.874 1  Rx        0221 -  8    00 00 00 6B 00 60 00 00 
   815)       779.088 1  Rx        0231 -  8    00 00 00 40 64 FE FE 00 
   816)       779.984 1  Rx        02C0 -  8    FF 7F 00 84 AE 00 00 00 
   817)       780.794 1  Rx        0120 -  8    C0 2B C0 5D 70 17 38 DD 
   818)       781.050 1  Rx        0121 -  8    3C 00 00 28 4D 4C 10 0D 
   819)       781.306 1  Rx        0122 -  8    13 00 00 00 00 00 00 0D 
   820)       784.378 1  Rx        02F4 -  8    09 44 00 00 00 00 00 00 
   821)       788.133 1  Rx        01F5 -  8    00 82 00 00 00 00 00 7D 
   822)       788.389 1  Rx        0211 -  8    00 00 00 00 7B E8 13 80 
   823)       788.602 1  Rx        0213 -  8    00 00 00 00 00 00 10 10 
   824)       788.858 1  Rx        0221 -  8    00 00 00 6B 00 60 00 00 
   825)       789.114 1  Rx        0231 -  8    00 00 00 40 64 FE FE 00 
   826)       789.968 1  Rx        02C0 -  8    FF 7F 00 84 BF 00 00 00 
   827)       790.821 1  Rx        0120 -  8    C0 2B C0 5D 70 17 38 DE 
   828)       791.034 1  Rx        0121 -  8    3A 00 00 28 4D 4C 10 0E 
   829)       791.290 1  Rx        0122 -  8    13 00 00 00 00 00 00 0E 
   830)       793.722 1  Rx        0102 -  8    28 64 00 00 00 00 00 0A 
   831)       798.117 1  Rx        01F5 -  8    00 83 00 00 00 00 00 7C 
   832)       798.373 1  Rx        0211 -  8    00 00 00 00 7B E8 23 B0 
   833)       798.586 1  Rx        0213 -  8    00 00 00 00 00 00 20 20 
   834)       798.842 1  Rx        0221 -  8    00 00 00 6B 00 60 00 00 
   835)       799.098 1  Rx        0231 -  8    00 00 00 40 64 FE FE 00 
   836)       799.951 1  Rx        02C0 -  8    FF 7F 00 84 40 00 00 00 
   837)       800.805 1  Rx        0120 -  8    C0 2B C0 5D 70 17 38 DF 
   838)       801.061 1  Rx        0121 -  8    3C 00 00 28 4D 4C 10 0F 
   839)       801.317 1  Rx        0122 -  8    13 00 00 00 00 00 00 0F 
   840)       804.389 1  Rx        02F4 -  8    09 44 00 00 00 00 00 00 
   841)       808.101 1  Rx        01F5 -  8    00 80 00 00 00 00 00 7F 
   842)       808.357 1  Rx        0211 -  8    00 00 00 00 7B E8 33 A0 
   843)       808.613 1  Rx        0213 -  8    00 00 00 00 00 00 30 30 
   844)       808.826 1  Rx        0221 -  8    00 00 00 6B 00 60 00 00 
   845)       809.082 1  Rx        0231 -  8    00 00 00 40 64 FE FE 00 
   846)       809.978 1  Rx        02C0 -  8    FF 7F 01 84 41 00 00 00 
   847)       810.789 1  Rx        0120 -  8    C0 2B C0 5D 70 17 38 E0 
   848)       811.045 1  Rx        0121 -  8    3C 00 00 28 4D 4C 10 00 
   849)       811.301 1  Rx        0122 -  8    13 00 00 00 00 00 00 00 
   850)       813.733 1  Rx        0102 -  8    28 64 00 00 00 00 00 0B 
   851)       818.084 1  Rx        01F5 -  8    00 81 00 00 00 00 00 7E 
   852)       818.340 1  Rx        0211 -  8    00 00 00 00 7B E8 43 D0 
   853)       818.554 1  Rx        0213 -  8    00 00 00 00 00 00 40 40 
   854)       818.810 1  Rx        0221 -  8    00 00 00 6B 00 60 00 00 
   855)       819.066 1  Rx        0231 -  8    00 00 00 40 64 FE FE 00 
   856)       820.047 1  Rx        02C0 -  8    FF 7F 00 84 62 00 00 00 
   857)       820.815 1  Rx        0120 -  8    C0 2B C0 5D 70 17 38 E1 
   858)       821.071 1  Rx        0121 -  8    3C 00 00 28 4D 4C 10 01 
   859)       821.284 1  Rx        0122 -  8    13 00 00 00 00 00 00 01 
   860)       824.399 1  Rx        02F4 -  8    09 44 00 00 00 00 00 00 
   861)       828.068 1  Rx        01F5 -  8    00 82 00 00 00 00 00 7D 
   862)       828.324 1  Rx        0211 -  8    00 00 00 00 7B E8 53 C0 
   863)       828.580 1  Rx        0213 -  8    00 00 00 00 00 00 50 50 
   864)       828.794 1  Rx        0221 -  8    00 00 00 6B 00 60 00 00 
   865)       829.050 1  Rx        0231 -  8    00 00 00 40 64 FE FE 00 
   866)       829.988 1  Rx        02C0 -  8    FF 7F 00 84 73 00 00 00 
   867)       830.799 1  Rx        0120 -  8    C0 2B C0 5D 70 17 38 E2 
   868)       831.055 1  Rx        0121 -  8    3C 00 00 28 4D 4C 10 02 
   869)       831.311 1  Rx        0122 -  8    13 00 00 00 00 00 00 02 
   870)       833.700 1  Rx        0102 -  8    28 64 00 00 00 00 00 0C 
   871)       838.095 1  Rx        01F5 -  8    00 83 00 00 00 00 00 7C 
   872)       838.308 1  Rx        0211 -  8    00 00 00 00 7B E8 63 F0 
   873)       838.564 1  Rx        0213 -  8    00 00 00 00 00 00 60 60 
   874)       838.820 1  Rx        0221 -  8    00 00 00 6B 00 60 00 00 
   875)       839.033 1  Rx        0231 -  8    00 00 00 40 64 FE FE 00 
   876)       839.972 1  Rx        02C0 -  8    FF 7F 00 84 04 00 00 00 
   877)       840.825 1  Rx        0120 -  8    C0 2B C0 5D 70 17 38 E3 
   878)       841.039 1  Rx        0121 -  8    3C 00 00 28 4D 4C 10 03 
   879)       841.295 1  Rx        0122 -  8    13 00 00 00 00 00 00 03 
   880)       844.367 1  Rx        02F4 -  8    09 44 00 00 00 00 00 00 
   881)       848.079 1  Rx        01F5 -  8    00 80 00 00 00 00 00 7F 
   882)       848.335 1  Rx        0211 -  8    00 00 00 00 7B E9 73 E1 
   883)       848.548 1  Rx        0213 -  8    00 00 00 00 00 00 70 70 
   884)       848.804 1  Rx        0221 -  8    00 00 00 6B 00 60 00 00 
   885)       849.060 1  Rx        0231 -  8    00 00 00 40 64 FE FE 00 
   886)       849.956 1  Rx        02C0 -  8    FF 7F 00 84 15 00 00 00 
   887)       850.809 1  Rx        0120 -  8    C0 2B C0 5D 70 17 38 E4 
   888)       851.023 1  Rx        0121 -  8    3C 00 00 28 4D 4C 10 04 
   889)       851.279 1  Rx        0122 -  8    13 00 00 00 00 00 00 04 
   890)       853.711 1  Rx        0102 -  8    28 64 00 00 00 00 00 0D 
   891)       858.020 1  Rx        01F5 -  8    00 81 00 00 00 00 00 7E 
   892)       858.276 1  Rx        0211 -  8    00 00 00 00 7B E8 83 10 
   893)       858.532 1  Rx        0213 -  8    00 00 00 00 00 00 80 80 
   894)       858.788 1  Rx        0221 -  8    00 00 00 6B 00 60 00 00 
   895)       859.001 1  Rx        0231 -  8    00 00 00 40 64 FE FE 00 
   896)       859.983 1  Rx        02C0 -  8    FF 7F 00 84 26 00 00 00 
   897)       860.793 1  Rx        0120 -  8    C0 2B C0 5D 70 17 38 E5 
   898)       861.049 1  Rx        0121 -  8    3A 00 00 28 4D 4C 10 05 
   899)       861.305 1  Rx        0122 -  8    13 00 00 00 00 00 00 05 
   900)       864.377 1  Rx        02F4 -  8    09 44 00 00 00 00 00 00 
   901)       868.046 1  Rx        01F5 -  8    00 82 00 00 00 00 00 7D 
   902)       868.302 1  Rx        0211 -  8    00 00 00 00 7B E8 93 00 
   903)       868.516 1  Rx        0213 -  8    00 00 00 00 00 00 90 90 
   904)       868.772 1  Rx        0221 -  8    00 00 00 6B 00 60 00 00 
   905)       869.028 1  Rx        0231 -  8    00 00 00 40 64 FE FE 00 
   906)       869.966 1  Rx        02C0 -  8    FF 7F 00 84 37 00 00 00 
   907)       870.820 1  Rx        0120 -  8    C0 2B C0 5D 70 17 38 E6 
   908)       871.033 1  Rx        0121 -  8    3C 00 00 28 4D 4C 10 06 
   909)       871.289 1  Rx        0122 -  8    13 00 00 00 00 00 00 06 
   910)       873.721 1  Rx        0100 -  8    97 0D 88 13 50 00 40 02 
   911)       873.977 1  Rx        0102 -  8    28 64 00 00 00 00 00 0E 
   912)       874.190 1  Rx        0116 -  8    24 5D 00 00 00 08 00 02 
   913)       874.446 1  Rx        0114 -  8    00 00 67 9A 00 FF FF 02 
   914)       878.030 1  Rx        01F5 -  8    00 83 00 00 00 00 00 7C 
   915)       878.286 1  Rx        0211 -  8    00 00 00 00 7B E8 A3 30 
   916)       878.500 1  Rx        0213 -  8    00 00 00 00 00 00 A0 A0 
   917)       878.756 1  Rx        0221 -  8    00 00 00 6B 00 60 00 00 
   918)       879.012 1  Rx        0231 -  8    00 00 00 40 64 FE FE 00 
   919)       879.993 1  Rx        02C0 -  8    FF 7F 00 84 C8 00 00 00 
   920)       880.804 1  Rx        0120 -  8    C0 2B C0 5D 70 17 38 E7 
   921)       881.060 1  Rx        0121 -  8    3C 00 00 28 4D 4C 10 07 
   922)       881.273 1  Rx        0122 -  8    13 00 00 00 00 00 00 07 
   923)       884.387 1  Rx        02F4 -  8    09 44 00 00 00 00 00 00 
   924)       888.014 1  Rx        01F5 -  8    00 80 00 00 00 00 00 7F 
   925)       888.270 1  Rx        0211 -  8    00 00 00 00 7B E8 B3 20 
   926)       888.526 1  Rx        0213 -  8    00 00 00 00 00 00 B0 B0 
   927)       888.782 1  Rx        0221 -  8    00 00 00 6B 00 60 00 00 
   928)       888.995 1  Rx        0231 -  8    00 00 00 40 64 FE FE 00 
   929)       889.977 1  Rx        02C0 -  8    FF 7F 00 84 D9 00 00 00 
   930)       890.787 1  Rx        0120 -  8    C0 2B C0 5D 70 17 38 E8 
   931)       891.043 1  Rx        0121 -  8    3A 00 00 28 4D 4C 10 08 
   932)       891.299 1  Rx        0122 -  8    13 00 00 00 00 00 00 08 
   933)       893.731 1  Rx        0102 -  8    28 64 00 00 00 00 00 0F 
   934)       897.998 1  Rx        01F5 -  8    00 81 00 00 00 00 00 7E 
   935)       898.297 1  Rx        0211 -  8    00 00 00 00 7B E6 C3 5E 
   936)       898.553 1  Rx        0213 -  8    00 00 00 00 00 00 C0 C0 
   937)       898.766 1  Rx        0221 -  8    00 00 00 6B 00 60 00 00 
   938)       899.022 1  Rx        0231 -  8    00 00 00 40 64 FE FE 00 
   939)       900.003 1  Rx        02C0 -  8    FF 7F 00 84 EA 00 00 00 
   940)       900.814 1  Rx        0120 -  8    C0 2B C0 5D 70 17 38 E9 
   941)       901.027 1  Rx        0121 -  8    3A 00 00 28 4D 4C 10 09 
   942)       901.283 1  Rx        0122 -  8    13 00 00 00 00 00 00 09 
   943)       904.398 1  Rx        02F4 -  8    09 44 00 00 00 00 00 00 
   944)       907.982 1  Rx        01F5 -  8    00 82 00 00 00 00 00 7D 
   945)       908.280 1  Rx        0211 -  8    00 00 00 00 7B E7 D3 4F 
   946)       908.494 1  Rx        0213 -  8    00 00 00 00 00 00 D0 D0 
   947)       908.750 1  Rx        0221 -  8    00 00 00 6B 00 60 00 00 
   948)       909.006 1  Rx        0231 -  8    00 00 00 40 64 FE FE 00 
   949)       909.987 1  Rx        02C0 -  8    FF 7F 00 84 FB 00 00 00 
   950)       910.798 1  Rx        0120 -  8    C0 2B C0 5D 70 17 38 EA 
   951)       911.054 1  Rx        0121 -  8    3C 00 00 28 4D 4C 10 0A 
   952)       911.267 1  Rx        0122 -  8    13 00 00 00 00 00 00 0A 
   953)       913.699 1  Rx        0102 -  8    28 64 00 00 00 00 00 00 
   954)       918.008 1  Rx        01F5 -  8    00 83 00 00 00 00 00 7C 
   955)       918.264 1  Rx        0211 -  8    00 00 00 00 7B E7 E3 7F 
   956)       918.520 1  Rx        0213 -  8    00 00 00 00 00 00 E0 E0 
   957)       918.776 1  Rx        0221 -  8    00 00 00 6B 00 60 00 00 
   958)       918.990 1  Rx        0231 -  8    00 00 00 40 64 FE FE 00 
   959)       919.971 1  Rx        02C0 -  8    FF 7F 00 84 8C 00 00 00 
   960)       920.782 1  Rx        0120 -  8    C0 2B C0 5D 70 17 38 EB 
   961)       921.038 1  Rx        0121 -  8    3A 00 00 28 4D 4C 10 0B 
   962)       921.294 1  Rx        0122 -  8    13 00 00 00 00 00 00 0B 
   963)       924.365 1  Rx        02F4 -  8    09 44 00 00 00 00 00 00 
   964)       927.992 1  Rx        01F5 -  8    00 80 00 00 00 00 00 7F 
   965)       928.291 1  Rx        0211 -  8    00 00 00 00 7B E8 F3 60 
   966)       928.547 1  Rx        0213 -  8    00 00 00 00 00 00 F0 F0 
   967)       928.760 1  Rx        0221 -  8    00 00 00 6B 00 60 00 00 
   968)       929.016 1  Rx        0231 -  8    00 00 00 40 64 FE FE 00 
   969)       929.997 1  Rx        02C0 -  8    FF 7F 00 84 9D 00 00 00 
   970)       930.808 1  Rx        0120 -  8    C0 2B C0 5D 70 17 38 EC 
   971)       931.021 1  Rx        0121 -  8    3A 00 00 28 4D 4C 10 0C 
   972)       931.277 1  Rx        0122 -  8    13 00 00 00 00 00 00 0C 
   973)       933.709 1  Rx        0102 -  8    28 64 00 00 00 00 00 01 
   974)       938.006 1  Rx        01F5 -  8    00 81 00 00 00 00 00 7E 
   975)       938.305 1  Rx        0211 -  8    00 00 00 00 7B E8 03 90 
   976)       938.561 1  Rx        0213 -  8    00 00 00 00 00 00 00 00 
   977)       938.774 1  Rx        0221 -  8    00 00 00 6B 00 60 00 00 
   978)       939.030 1  Rx        0231 -  8    00 00 00 40 64 FE FE 00 
   979)       940.011 1  Rx        02C0 -  8    FF 7F 00 84 AE 00 00 00 
   980)       940.822 1  Rx        0120 -  8    C0 2B C0 5D 70 17 38 ED 
   981)       941.078 1  Rx        0121 -  8    3C 00 00 28 4D 4C 10 0D 
   982)       941.334 1  Rx        0122 -  8    13 00 00 00 00 00 00 0D 
   983)       944.406 1  Rx        02F4 -  8    09 44 00 00 00 00 00 00 
   984)       947.990 1  Rx        01F5 -  8    00 82 00 00 00 00 00 7D 
   985)       948.331 1  Rx        0211 -  8    00 00 00 00 7B E8 13 80 
   986)       948.587 1  Rx        0213 -  8    00 00 00 00 00 00 10 10 
   987)       948.843 1  Rx        0221 -  8    00 00 00 6B 00 60 00 00 
   988)       949.056 1  Rx        0231 -  8    00 00 00 40 64 FE FE 00 
   989)       950.038 1  Rx        02C0 -  8    FF 7F 00 84 BF 00 00 00 
   990)       950.806 1  Rx        0120 -  8    C0 2B C0 5D 70 17 38 EE 
   991)       951.062 1  Rx        0121 -  8    3C 00 00 28 4D 4C 10 0E 
   992)       951.318 1  Rx        0122 -  8    13 00 00 00 00 00 00 0E 
   993)       953.750 1  Rx        0102 -  8    28 64 00 00 00 00 00 02 
   994)       957.974 1  Rx        01F5 -  8    00 83 00 00 00 00 00 7C 
   995)       958.315 1  Rx        0211 -  8    00 00 00 00 7B E8 23 B0 
   996)       958.571 1  Rx        0213 -  8    00 00 00 00 00 00 20 20 
   997)       958.827 1  Rx        0221 -  8    00 00 00 6B 00 60 00 00 
   998)       959.083 1  Rx        0231 -  8    00 00 00 40 64 FE FE 00 
   999)       960.022 1  Rx        02C0 -  8    FF 7F 00 84 40 00 00 00 
  1000)       960.832 1  Rx        0120 -  8    C0 2B C0 5D 70 17 38 EF 
  1001)       961.046 1  Rx        0121 -  8    3C 00 00 28 4D 4C 10 0F 
  1002)       961.302 1  Rx        0122 -  8    13 00 00 00 00 00 00 0F 
  1003)       964.416 1  Rx        02F4 -  8    09 44 00 00 00 00 00 00 
  1004)       967.957 1  Rx        01F5 -  8    00 80 00 00 00 00 00 7F 
  1005)       968.299 1  Rx        0211 -  8    00 00 00 00 7B E8 33 A0 
  1006)       968.555 1  Rx        0213 -  8    00 00 00 00 00 00 30 30 
  1007)       968.811 1  Rx        0221 -  8    00 00 00 6B 00 60 00 00 
  1008)       969.024 1  Rx        0231 -  8    00 00 00 40 64 FE FE 00 
  1009)       970.005 1  Rx        02C0 -  8    FF 7F 00 84 51 00 00 00 
  1010)       970.816 1  Rx        0120 -  8    C0 2B C0 5D 70 17 38 F0 
  1011)       971.072 1  Rx        0121 -  8    3C 00 00 28 4D 4C 10 00 
  1012)       971.328 1  Rx        0122 -  8    13 00 00 00 00 00 00 00 
  1013)       973.760 1  Rx        0100 -  8    98 0D 88 13 50 00 40 03 
  1014)       973.973 1  Rx        0102 -  8    28 64 00 00 00 00 00 03 
  1015)       974.229 1  Rx        0114 -  8    00 00 67 9A 00 FF FF 03 
  1016)       974.485 1  Rx        0116 -  8    24 5D 00 00 00 08 00 03 
  1017)       974.699 1  Rx        0380 -  8    4E 72 0F 0A 41 00 00 09 
  1018)       974.955 1  Rx        0105 -  8    00 00 3D 0E 00 00 00 09 
  1019)       977.941 1  Rx        01F5 -  8    00 81 00 00 00 00 00 7E 
  1020)       978.325 1  Rx        0211 -  8    00 00 00 00 7B E8 43 D0 
  1021)       978.581 1  Rx        0213 -  8    00 00 00 00 00 00 40 40 
  1022)       978.795 1  Rx        0221 -  8    00 00 00 6B 00 60 00 00 
  1023)       979.051 1  Rx        0231 -  8    00 00 00 40 64 FE FE 00 
  1024)       980.032 1  Rx        02C0 -  8    FF 7F 00 84 62 00 00 00 
  1025)       980.843 1  Rx        0120 -  8    C0 2B C0 5D 70 17 38 F1 
  1026)       981.056 1  Rx        0121 -  8    3A 00 00 28 4D 4C 10 01 
  1027)       981.312 1  Rx        0122 -  8    13 00 00 00 00 00 00 01 
  1028)       984.427 1  Rx        02F4 -  8    09 44 00 00 00 00 00 00 
  1029)       987.925 1  Rx        01F5 -  8    00 82 00 00 00 00 00 7D 
  1030)       988.352 1  Rx        0211 -  8    00 00 00 00 7B E8 53 C0 
  1031)       988.565 1  Rx        0213 -  8    00 00 00 00 00 00 50 50 
  1032)       988.821 1  Rx        0221 -  8    00 00 00 6B 00 60 00 00 
  1033)       989.077 1  Rx        0231 -  8    00 00 00 40 64 FE FE 00 
  1034)       990.016 1  Rx        02C0 -  8    FF 7F 00 84 73 00 00 00 
  1035)       990.826 1  Rx        0120 -  8    C0 2B C0 5D 70 17 38 F2 
  1036)       991.082 1  Rx        0121 -  8    3C 00 00 28 4D 4C 10 02 
  1037)       991.296 1  Rx        0122 -  8    13 00 00 00 00 00 00 02 
  1038)       993.728 1  Rx        0102 -  8    28 64 00 00 00 00 00 04 
  1039)       997.909 1  Rx        01F5 -  8    00 83 00 00 00 00 00 7C 
  1040)       998.336 1  Rx        0211 -  8    00 00 00 00 7B E8 63 F0 
  1041)       998.592 1  Rx        0213 -  8    00 00 00 00 00 00 60 60 
  1042)       998.805 1  Rx        0221 -  8    00 00 00 6B 00 60 00 00 
  1043)       999.061 1  Rx        0231 -  8    00 00 00 40 64 FE FE 00 
  1044)      1000.042 1  Rx        02C0 -  8    FF 7F 00 84 04 00 00 00 
  1045)      1000.810 1  Rx        0120 -  8    C0 2B C0 5D 70 17 38 F3 
  1046)      1001.066 1  Rx        0121 -  8    3C 00 00 28 4D 4C 10 03 
  1047)      1001.322 1  Rx        0122 -  8    13 00 00 00 00 00 00 03 
  1048)      1004.394 1  Rx        02F4 -  8    09 44 00 00 00 00 00 00 
  1049)      1007.936 1  Rx        01F5 -  8    00 80 00 00 00 00 00 7F 
  1050)      1008.320 1  Rx        0211 -  8    00 00 00 00 7B E8 73 E0 
  1051)      1008.576 1  Rx        0213 -  8    00 00 00 00 00 00 70 70 
  1052)      1008.789 1  Rx        0221 -  8    00 00 00 6B 00 60 00 00 
  1053)      1009.045 1  Rx        0231 -  8    00 00 00 40 64 FE FE 00 
  1054)      1010.026 1  Rx        02C0 -  8    FF 7F 00 84 15 00 00 00 
  1055)      1010.837 1  Rx        0120 -  8    C0 2B C0 5D 70 17 38 F4 
  1056)      1011.050 1  Rx        0121 -  8    3C 00 00 28 4D 4C 10 04 
  1057)      1011.306 1  Rx        0122 -  8    13 00 00 00 00 00 00 04 
  1058)      1013.738 1  Rx        0102 -  8    28 64 00 00 00 00 00 05 
  1059)      1017.919 1  Rx        01F5 -  8    00 81 00 00 00 00 00 7E 
  1060)      1018.346 1  Rx        0211 -  8    00 00 00 00 7B E8 83 10 
  1061)      1018.602 1  Rx        0213 -  8    00 00 00 00 00 00 80 80 
  1062)      1018.815 1  Rx        0221 -  8    00 00 00 6B 00 60 00 00 
  1063)      1019.071 1  Rx        0231 -  8    00 00 00 40 64 FE FE 00 
  1064)      1020.010 1  Rx        02C0 -  8    FF 7F 00 84 26 00 00 00 
  1065)      1020.821 1  Rx        0120 -  8    C0 2B C0 5D 70 17 38 F5 
  1066)      1021.077 1  Rx        0121 -  8    3C 00 00 28 4D 4C 10 05 
  1067)      1021.290 1  Rx        0122 -  8    13 00 00 00 00 00 00 05 
  1068)      1024.405 1  Rx        02F4 -  8    09 44 00 00 00 00 00 00 
  1069)      1027.903 1  Rx        01F5 -  8    00 82 00 00 00 00 00 7D 
  1070)      1028.330 1  Rx        0211 -  8    00 00 00 00 7B E8 93 00 
  1071)      1028.586 1  Rx        0213 -  8    00 00 00 00 00 00 90 90 
  1072)      1028.799 1  Rx        0221 -  8    00 00 00 6B 00 60 00 00 
  1073)      1029.055 1  Rx        0231 -  8    00 00 00 40 64 FE FE 00 
  1074)      1030.037 1  Rx        02C0 -  8    FF 7F 00 84 37 00 00 00 
  1075)      1030.805 1  Rx        0120 -  8    C0 2B C0 5D 70 17 38 F6 
  1076)      1031.060 1  Rx        0121 -  8    3C 00 00 28 4D 4C 10 06 
  1077)      1031.316 1  Rx        0122 -  8    13 00 00 00 00 00 00 06 
  1078)      1033.748 1  Rx        0102 -  8    28 64 00 00 00 00 00 06 
  1079)      1037.887 1  Rx        01F5 -  8    00 83 00 00 00 00 00 7C 
  1080)      1038.314 1  Rx        0211 -  8    00 00 00 00 7B E6 A3 3E 
  1081)      1038.570 1  Rx        0213 -  8    00 00 00 00 00 00 A0 A0 
  1082)      1038.783 1  Rx        0221 -  8    00 00 00 6B 00 60 00 00 
  1083)      1039.039 1  Rx        0231 -  8    00 00 00 40 64 FE FE 00 
  1084)      1040.020 1  Rx        02C0 -  8    FF 7F 00 84 C8 00 00 00 
  1085)      1040.831 1  Rx        0120 -  8    C0 2B C0 5D 70 17 38 F7 
  1086)      1041.044 1  Rx        0121 -  8    3A 00 00 28 4D 4C 10 07 
  1087)      1041.300 1  Rx        0122 -  8    13 00 00 00 00 00 00 07 
  1088)      1047.871 1  Rx        01F5 -  8    00 80 00 00 00 00 00 7F 
  1089)      1048.340 1  Rx        0211 -  8    00 00 00 00 7B E7 B3 2F 
  1090)      1048.554 1  Rx        0213 -  8    00 00 00 00 00 00 B0 B0 
  1091)      1048.810 1  Rx        0221 -  8    00 00 00 6B 00 60 00 00 
  1092)      1049.066 1  Rx        0231 -  8    00 00 00 40 64 FE FE 00 
  1093)      1049.279 1  Rx        02F4 -  8    09 44 00 00 00 00 00 00 
  1094)      1050.047 1  Rx        02C0 -  8    FF 7F 00 84 D9 00 00 00 
  1095)      1050.815 1  Rx        0120 -  8    C0 2B C0 5D 70 17 38 F8 
  1096)      1051.071 1  Rx        0121 -  8    3A 00 00 28 4D 4C 10 08 
  1097)      1051.284 1  Rx        0122 -  8    13 00 00 00 00 00 00 08 
  1098)      1053.759 1  Rx        0102 -  8    28 64 00 00 00 00 00 07 
  1099)      1057.855 1  Rx        01F5 -  8    00 81 00 00 00 00 00 7E 
  1100)      1058.324 1  Rx        0211 -  8    00 00 00 00 7B E7 C3 5F 
  1101)      1058.537 1  Rx        0213 -  8    00 00 00 00 00 00 C0 C0 
  1102)      1058.793 1  Rx        0221 -  8    00 00 00 6B 00 60 00 00 
  1103)      1059.049 1  Rx        0231 -  8    00 00 00 40 64 FE FE 00 
  1104)      1060.031 1  Rx        02C0 -  8    FF 7F 00 84 EA 00 00 00 
  1105)      1060.799 1  Rx        0120 -  8    C0 2B C0 5D 70 17 38 F9 
  1106)      1061.055 1  Rx        0121 -  8    3C 00 00 28 4D 4C 10 09 
  1107)      1061.311 1  Rx        0122 -  8    13 00 00 00 00 00 00 09 
  1108)      1064.425 1  Rx        02F4 -  8    09 44 00 00 00 00 00 00 
  1109)      1067.839 1  Rx        01F5 -  8    00 82 00 00 00 00 00 7D 
  1110)      1068.308 1  Rx        0211 -  8    00 00 00 00 7B E8 D3 40 
  1111)      1068.564 1  Rx        0213 -  8    00 00 00 00 00 00 D0 D0 
  1112)      1068.820 1  Rx        0221 -  8    00 00 00 6B 00 60 00 00 
  1113)      1069.033 1  Rx        0231 -  8    00 00 00 40 64 FE FE 00 
  1114)      1070.057 1  Rx        02C0 -  8    FF 7F 00 84 FB 00 00 00 
  1115)      1070.825 1  Rx        0120 -  8    C0 2B C0 5D 70 17 38 FA 
  1116)      1071.039 1  Rx        0121 -  8    3A 00 00 28 4D 4C 10 0A 
  1117)      1071.295 1  Rx        0122 -  8    13 00 00 00 00 00 00 0A 
  1118)      1073.726 1  Rx        0100 -  8    97 0D 88 13 50 00 40 04 
  1119)      1073.982 1  Rx        0102 -  8    28 64 00 00 00 00 00 08 
  1120)      1074.238 1  Rx        0116 -  8    24 5D 00 00 00 08 00 04 
  1121)      1074.452 1  Rx        0114 -  8    00 00 67 9A 00 FF FF 04 
  1122)      1077.822 1  Rx        01F5 -  8    00 83 00 00 00 00 00 7C 
  1123)      1078.334 1  Rx        0211 -  8    00 00 00 00 7B E8 E3 70 
  1124)      1078.590 1  Rx        0213 -  8    00 00 00 00 00 00 E0 E0 
  1125)      1078.804 1  Rx        0221 -  8    00 00 00 6B 00 60 00 00 
  1126)      1079.060 1  Rx        0231 -  8    00 00 00 40 64 FE FE 00 
  1127)      1080.041 1  Rx        02C0 -  8    FF 7F 00 84 8C 00 00 00 
  1128)      1080.809 1  Rx        0120 -  8    C0 2B C0 5D 70 17 38 FB 
  1129)      1081.065 1  Rx        0121 -  8    3C 00 00 28 4D 4C 10 0B 
  1130)      1081.321 1  Rx        0122 -  8    13 00 00 00 00 00 00 0B 
  1131)      1084.393 1  Rx        02F4 -  8    09 44 00 00 00 00 00 00 
  1132)      1087.849 1  Rx        01F5 -  8    00 80 00 00 00 00 00 7F 
  1133)      1088.318 1  Rx        0211 -  8    00 00 00 00 7B E8 F3 60 
  1134)      1088.574 1  Rx        0213 -  8    00 00 00 00 00 00 F0 F0 
  1135)      1088.788 1  Rx        0221 -  8    00 00 00 6B 00 60 00 00 
  1136)      1089.044 1  Rx        0231 -  8    00 00 00 40 64 FE FE 00 
  1137)      1090.025 1  Rx        02C0 -  8    FF 7F 00 84 9D 00 00 00 
  1138)      1090.836 1  Rx        0120 -  8    C0 2B C0 5D 70 17 38 FC 
  1139)      1091.049 1  Rx        0121 -  8    3A 00 00 28 4D 4C 10 0C 
  1140)      1091.305 1  Rx        0122 -  8    13 00 00 00 00 00 00 0C 
  1141)      1093.737 1  Rx        0102 -  8    28 64 00 00 00 00 00 09 
  1142)      1097.833 1  Rx        01F5 -  8    00 81 00 00 00 00 00 7E 
  1143)      1098.302 1  Rx        0211 -  8    00 00 00 00 7B E8 03 90 
  1144)      1098.558 1  Rx        0213 -  8    00 00 00 00 00 00 00 00 
  1145)      1098.814 1  Rx        0221 -  8    00 00 00 6B 00 60 00 00 
  1146)      1099.027 1  Rx        0231 -  8    00 00 00 40 64 FE FE 00 
  1147)      1100.051 1  Rx        02C0 -  8    FF 7F 00 84 AE 00 00 00 
  1148)      1100.819 1  Rx        0120 -  8    C0 2B C0 5D 70 17 38 FD 
  1149)      1101.075 1  Rx        0121 -  8    3C 00 00 28 4D 4C 10 0D 
  1150)      1101.289 1  Rx        0122 -  8    13 00 00 00 00 00 00 0D 
  1151)      1104.403 1  Rx        02F4 -  8    09 44 00 00 00 00 00 00 
  1152)      1107.817 1  Rx        01F5 -  8    00 82 00 00 00 00 00 7D 
  1153)      1108.329 1  Rx        0211 -  8    00 00 00 00 7B E8 13 80 
  1154)      1108.585 1  Rx        0213 -  8    00 00 00 00 00 00 10 10 
  1155)      1108.841 1  Rx        0221 -  8    00 00 00 6B 00 60 00 00 
  1156)      1109.054 1  Rx        0231 -  8    00 00 00 40 64 FE FE 00 
  1157)      1110.035 1  Rx        02C0 -  8    FF 7F 00 84 BF 00 00 00 
  1158)      1110.803 1  Rx        0120 -  8    C0 2B C0 5D 70 17 38 FE 
  1159)      1111.059 1  Rx        0121 -  8    3C 00 00 28 4D 4C 10 0E 
  1160)      1111.315 1  Rx        0122 -  8    13 00 00 00 00 00 00 0E 
  1161)      1113.747 1  Rx        0102 -  8    28 64 00 00 00 00 00 0A 
  1162)      1117.800 1  Rx        01F5 -  8    00 83 00 00 00 00 00 7C 
  1163)      1118.312 1  Rx        0211 -  8    00 00 00 00 7B E8 23 B0 
  1164)      1118.568 1  Rx        0213 -  8    00 00 00 00 00 00 20 20 
  1165)      1118.824 1  Rx        0221 -  8    00 00 00 6B 00 60 00 00 
  1166)      1119.080 1  Rx        0231 -  8    00 00 00 40 64 FE FE 00 
  1167)      1120.062 1  Rx        02C0 -  8    FF 7F 00 84 40 00 00 00 
  1168)      1120.830 1  Rx        0120 -  8    C0 2B C0 5D 70 17 38 FF 
  1169)      1121.043 1  Rx        0121 -  8    3C 00 00 28 4D 4C 10 0F 
  1170)      1121.299 1  Rx        0122 -  8    13 00 00 00 00 00 00 0F 
  1171)      1124.414 1  Rx        02F4 -  8    09 44 00 00 00 00 00 00 
  1172)      1127.784 1  Rx        01F5 -  8    00 80 00 00 00 00 00 7F 
  1173)      1128.339 1  Rx        0211 -  8    00 00 00 00 7B E8 33 A0 
  1174)      1128.552 1  Rx        0213 -  8    00 00 00 00 00 00 30 30 
  1175)      1128.808 1  Rx        0221 -  8    00 00 00 6B 00 60 00 00 
  1176)      1129.064 1  Rx        0231 -  8    00 00 00 40 64 FE FE 00 
  1177)      1130.046 1  Rx        02C0 -  8    FF 7F 00 84 51 00 00 00 
  1178)      1130.814 1  Rx        0120 -  8    C0 2B C0 5D 70 17 38 00 
  1179)      1131.070 1  Rx        0121 -  8    3A 00 00 28 4D 4C 10 00 
  1180)      1131.283 1  Rx        0122 -  8    13 00 00 00 00 00 00 00 
  1181)      1133.758 1  Rx        0102 -  8    28 64 00 00 00 00 00 0B 
  1182)      1137.768 1  Rx        01F5 -  8    00 81 00 00 00 00 00 7E 
  1183)      1138.323 1  Rx        0211 -  8    00 00 00 00 7B E8 43 D0 
  1184)      1138.579 1  Rx        0213 -  8    00 00 00 00 00 00 40 40 
  1185)      1138.835 1  Rx        0221 -  8    00 00 00 6B 00 60 00 00 
  1186)      1139.048 1  Rx        0231 -  8    00 00 00 40 64 FE FE 00 
  1187)      1140.072 1  Rx        02C0 -  8    FF 7F 00 84 62 00 00 00 
  1188)      1140.840 1  Rx        0120 -  8    C0 2B C0 5D 70 17 38 01 
  1189)      1141.053 1  Rx        0121 -  8    3C 00 00 28 4D 4C 10 01 
  1190)      1141.309 1  Rx        0122 -  8    13 00 00 00 00 00 00 01 
  1191)      1144.424 1  Rx        02F4 -  8    09 44 00 00 00 00 00 00 
  1192)      1147.752 1  Rx        01F5 -  8    00 82 00 00 00 00 00 7D 
  1193)      1148.307 1  Rx        0211 -  8    00 00 00 00 7B E8 53 C0 
  1194)      1148.563 1  Rx        0213 -  8    00 00 00 00 00 00 50 50 
  1195)      1148.819 1  Rx        0221 -  8    00 00 00 6B 00 60 00 00 
  1196)      1149.075 1  Rx        0231 -  8    00 00 00 40 64 FE FE 00 
  1197)      1150.056 1  Rx        02C0 -  8    FF 7F 00 84 73 00 00 00 
  1198)      1150.824 1  Rx        0120 -  8    C0 2B C0 5D 70 17 38 02 
  1199)      1151.037 1  Rx        0121 -  8    3C 00 00 28 4D 4C 10 02 
  1200)      1151.293 1  Rx        0122 -  8    13 00 00 00 00 00 00 02 
  1201)      1153.768 1  Rx        0102 -  8    28 64 00 00 00 00 00 0C 
  1202)      1157.779 1  Rx        01F5 -  8    00 83 00 00 00 00 00 7C 
  1203)      1158.333 1  Rx        0211 -  8    00 00 00 00 7B E8 63 F0 
  1204)      1158.589 1  Rx        0213 -  8    00 00 00 00 00 00 60 60 
  1205)      1158.845 1  Rx        0221 -  8    00 00 00 6B 00 60 00 00 
  1206)      1159.058 1  Rx        0231 -  8    00 00 00 40 64 FE FE 00 
  1207)      1160.040 1  Rx        02C0 -  8    FF 7F 00 84 04 00 00 00 
  1208)      1160.808 1  Rx        0120 -  8    C0 2B C0 5D 70 17 38 03 
  1209)      1161.064 1  Rx        0121 -  8    3C 00 00 28 4D 4C 10 03 
  1210)      1161.320 1  Rx        0122 -  8    13 00 00 00 00 00 00 03 
  1211)      1164.392 1  Rx        02F4 -  8    09 44 00 00 00 00 00 00 
  1212)      1167.762 1  Rx        01F5 -  8    00 80 00 00 00 00 00 7F 
  1213)      1168.360 1  Rx        0211 -  8    00 00 00 00 7B E8 73 E0 
  1214)      1168.573 1  Rx        0213 -  8    00 00 00 00 00 00 70 70 
  1215)      1168.829 1  Rx        0221 -  8    00 00 00 6B 00 60 00 00 
  1216)      1169.085 1  Rx        0231 -  8    00 00 00 40 64 FE FE 00 
  1217)      1170.066 1  Rx        02C0 -  8    FF 7F 00 84 15 00 00 00 
  1218)      1170.834 1  Rx        0120 -  8    C0 2B C0 5D 70 17 38 04 
  1219)      1171.048 1  Rx        0121 -  8    3C 00 00 28 4D 4C 10 04 
  1220)      1171.304 1  Rx        0122 -  8    13 00 00 00 00 00 00 04 
  1221)      1173.736 1  Rx        0100 -  8    97 0D 88 13 50 00 40 05 
  1222)      1173.992 1  Rx        0102 -  8    28 64 00 00 00 00 00 0D 
  1223)      1174.205 1  Rx        0112 -  8    05 73 0F 2F 6D 0F 00 0D 
  1224)      1174.461 1  Rx        0113 -  8    01 42 14 40 FF FF 41 0D 
  1225)      1174.674 1  Rx        0114 -  8    00 00 67 9A 00 FF FF 05 
  1226)      1174.930 1  Rx        0116 -  8    24 5D 00 00 00 08 00 05 
  1227)      1175.186 1  Rx        0380 -  8    4F 72 0F 0B 41 00 00 0A 
  1228)      1175.442 1  Rx        0105 -  8    00 00 3D 0E 00 00 00 0A 
  1229)      1177.746 1  Rx        01F5 -  8    00 81 00 00 00 00 00 7E 
  1230)      1178.344 1  Rx        0211 -  8    00 00 00 00 7B E8 83 10 
  1231)      1178.557 1  Rx        0213 -  8    00 00 00 00 00 00 80 80 
  1232)      1178.813 1  Rx        0221 -  8    00 00 00 6B 00 60 00 00 
  1233)      1179.069 1  Rx        0231 -  8    00 00 00 40 64 FE FE 00 
  1234)      1180.050 1  Rx        02C0 -  8    FF 7F 00 84 26 00 00 00 
  1235)      1180.818 1  Rx        0120 -  8    C0 2B C0 5D 70 17 38 05 
  1236)      1181.074 1  Rx        0121 -  8    3C 00 00 28 4D 4C 10 05 
  1237)      1181.287 1  Rx        0122 -  8    13 00 00 00 00 00 00 05 
  1238)      1184.402 1  Rx        02F4 -  8    09 44 00 00 00 00 00 00 
  1239)      1187.730 1  Rx        01F5 -  8    00 82 00 00 00 00 00 7D 
  1240)      1188.370 1  Rx        0211 -  8    00 00 00 00 7B E8 93 00 
  1241)      1188.626 1  Rx        0213 -  8    00 00 00 00 00 00 90 90 
  1242)      1188.882 1  Rx        0221 -  8    00 00 00 6B 00 60 00 00 
  1243)      1189.095 1  Rx        0231 -  8    00 00 00 40 64 FE FE 00 
  1244)      1190.034 1  Rx        02C0 -  8    FF 7F 00 84 37 00 00 00 
  1245)      1190.802 1  Rx        0120 -  8    C0 2B C0 5D 70 17 38 06 
  1246)      1191.058 1  Rx        0121 -  8    3C 00 00 28 4D 4C 10 06 
  1247)      1191.314 1  Rx        0122 -  8    13 00 00 00 00 00 00 06 
  1248)      1193.746 1  Rx        0102 -  8    28 64 00 00 00 00 00 0E 
  1249)      1197.714 1  Rx        01F5 -  8    00 83 00 00 00 00 00 7C 
  1250)      1198.354 1  Rx        0211 -  8    00 00 00 00 7B E8 A3 30 
  1251)      1198.610 1  Rx        0213 -  8    00 00 00 00 00 00 A0 A0 
  1252)      1198.866 1  Rx        0221 -  8    00 00 00 6B 00 60 00 00 
  1253)      1199.079 1  Rx        0231 -  8    00 00 00 40 64 FE FE 00 
  1254)      1200.061 1  Rx        02C0 -  8    FF 7F 00 84 C8 00 00 00 
  1255)      1200.871 1  Rx        0120 -  8    C0 2B C0 5D 70 17 38 07 
  1256)      1201.085 1  Rx        0121 -  8    3A 00 00 28 4D 4C 10 07 
  1257)      1201.341 1  Rx        0122 -  8    13 00 00 00 00 00 00 07 
  1258)      1204.412 1  Rx        02F4 -  8    09 44 00 00 00 00 00 00 
  1259)      1207.698 1  Rx        01F5 -  8    00 80 00 00 00 00 00 7F 
  1260)      1208.338 1  Rx        0211 -  8    00 00 00 00 7B E8 B3 20 
  1261)      1208.594 1  Rx        0213 -  8    00 00 00 00 00 00 B0 B0 
  1262)      1208.807 1  Rx        0221 -  8    00 00 00 6B 00 60 00 00 
  1263)      1209.063 1  Rx        0231 -  8    00 00 00 40 64 FE FE 00 
  1264)      1210.044 1  Rx        02C0 -  8    FF 7F 00 84 D9 00 00 00 
  1265)      1210.812 1  Rx        0120 -  8    C0 2B C0 5D 70 17 38 08 
  1266)      1211.068 1  Rx        0121 -  8    3A 00 00 28 4D 4C 10 08 
  1267)      1211.282 1  Rx        0122 -  8    13 00 00 00 00 00 00 08 
  1268)      1213.756 1  Rx        0102 -  8    28 64 00 00 00 00 00 0F 
  1269)      1217.682 1  Rx        01F5 -  8    00 81 00 00 00 00 00 7E 
  1270)      1218.322 1  Rx        0211 -  8    00 00 00 00 7B E8 C3 50 
  1271)      1218.578 1  Rx        0213 -  8    00 00 00 00 00 00 C0 C0 
  1272)      1218.834 1  Rx        0221 -  8    00 00 00 6B 00 60 00 00 
  1273)      1219.047 1  Rx        0231 -  8    00 00 00 40 64 FE FE 00 
  1274)      1220.071 1  Rx        02C0 -  8    FF 7F 00 84 EA 00 00 00 
  1275)      1220.882 1  Rx        0120 -  8    C0 2B C0 5D 70 17 38 09 
  1276)      1221.095 1  Rx        0121 -  8    3A 00 00 28 4D 4C 10 09 
  1277)      1221.351 1  Rx        0122 -  8    13 00 00 00 00 00 00 09 
  1278)      1224.423 1  Rx        02F4 -  8    09 44 00 00 00 00 00 00 
  1279)      1227.665 1  Rx        01F5 -  8    00 82 00 00 00 00 00 7D 
  1280)      1228.348 1  Rx        0211 -  8    00 00 00 00 7B E8 D3 40 
  1281)      1228.604 1  Rx        0213 -  8    00 00 00 00 00 00 D0 D0 
  1282)      1228.817 1  Rx        0221 -  8    00 00 00 6B 00 60 00 00 
  1283)      1229.073 1  Rx        0231 -  8    00 00 00 40 64 FE FE 00 
  1284)      1230.055 1  Rx        02C0 -  8    FF 7F 00 84 FB 00 00 00 
  1285)      1230.823 1  Rx        0120 -  8    C0 2B C0 5D 70 17 38 0A 
  1286)      1231.036 1  Rx        0121 -  8    3C 00 00 28 4D 4C 10 0A 
  1287)      1231.292 1  Rx        0122 -  8    13 00 00 00 00 00 00 0A 
  1288)      1233.767 1  Rx        0102 -  8    28 64 00 00 00 00 00 00 
  1289)      1237.692 1  Rx        01F5 -  8    00 83 00 00 00 00 00 7C 
  1290)      1238.417 1  Rx        0211 -  8    00 00 00 00 7B E9 E3 71 
  1291)      1238.631 1  Rx        0213 -  8    00 00 00 00 00 00 E0 E0 
  1292)      1238.887 1  Rx        0221 -  8    00 00 00 6B 00 60 00 00 
  1293)      1239.143 1  Rx        0231 -  8    00 00 00 40 64 FE FE 00 
  1294)      1240.081 1  Rx        02C0 -  8    FF 7F 00 84 8C 00 00 00 
  1295)      1240.807 1  Rx        0120 -  8    C0 2B C0 5D 70 17 38 0B 
  1296)      1241.063 1  Rx        0121 -  8    3A 00 00 28 4D 4C 10 0B 
  1297)      1241.319 1  Rx        0122 -  8    13 00 00 00 00 00 00 0B 
  1298)      1244.390 1  Rx        02F4 -  8    09 44 00 00 00 00 00 00 
  1299)      1247.676 1  Rx        01F5 -  8    00 80 00 00 00 00 00 7F 
  1300)      1248.358 1  Rx        0211 -  8    00 00 00 00 7B E8 F3 60 
  1301)      1248.614 1  Rx        0213 -  8    00 00 00 00 00 00 F0 F0 
  1302)      1248.828 1  Rx        0221 -  8    00 00 00 6B 00 60 00 00 
  1303)      1249.084 1  Rx        0231 -  8    00 00 00 40 64 FE FE 00 
  1304)      1250.065 1  Rx        02C0 -  8    FF 7F 00 84 9D 00 00 00 
  1305)      1250.833 1  Rx        0120 -  8    C0 2B C0 5D 70 17 38 0C 
  1306)      1251.046 1  Rx        0121 -  8    3C 00 00 28 4D 4C 10 0C 
  1307)      1251.302 1  Rx        0122 -  8    13 00 00 00 00 00 00 0C 
  1308)      1253.734 1  Rx        0102 -  8    28 64 00 00 00 00 00 01 
  1309)      1257.660 1  Rx        01F5 -  8    00 81 00 00 00 00 00 7E 
  1310)      1258.385 1  Rx        0211 -  8    00 00 00 00 7B E8 03 90 
  1311)      1258.598 1  Rx        0213 -  8    00 00 00 00 00 00 00 00 
  1312)      1258.854 1  Rx        0221 -  8    00 00 00 6B 00 60 00 00 
  1313)      1259.110 1  Rx        0231 -  8    00 00 00 40 64 FE FE 00 
  1314)      1260.049 1  Rx        02C0 -  8    FF 7F 00 84 AE 00 00 00 
  1315)      1260.860 1  Rx        0120 -  8    C0 2B C0 5D 70 17 38 0D 
  1316)      1261.116 1  Rx        0121 -  8    3C 00 00 28 4D 4C 10 0D 
  1317)      1261.329 1  Rx        0122 -  8    13 00 00 00 00 00 00 0D 
  1318)      1264.401 1  Rx        02F4 -  8    09 44 00 00 00 00 00 00 
  1319)      1267.643 1  Rx        01F5 -  8    00 82 00 00 00 00 00 7D 
  1320)      1268.369 1  Rx        0211 -  8    00 00 00 00 7B E8 13 80 
  1321)      1268.582 1  Rx        0213 -  8    00 00 00 00 00 00 10 10 
  1322)      1268.838 1  Rx        0221 -  8    00 00 00 6B 00 60 00 00 
  1323)      1269.094 1  Rx        0231 -  8    00 00 00 40 64 FE FE 00 
  1324)      1270.075 1  Rx        02C0 -  8    FF 7F 00 84 BF 00 00 00 
  1325)      1270.843 1  Rx        0120 -  8    C0 2B C0 5D 70 17 38 0E 
  1326)      1271.099 1  Rx        0121 -  8    3C 00 00 28 4D 4C 10 0E 
  1327)      1271.355 1  Rx        0122 -  8    13 00 00 00 00 00 00 0E 
  1328)      1273.745 1  Rx        0100 -  8    97 0D 88 13 50 00 40 06 
  1329)      1274.001 1  Rx        0102 -  8    28 64 00 00 00 00 00 02 
  1330)      1274.214 1  Rx        0116 -  8    24 5D 00 00 00 08 00 06 
  1331)      1274.470 1  Rx        0114 -  8    00 00 67 9A 00 FF FF 06 
  1332)      1277.627 1  Rx        01F5 -  8    00 83 00 00 00 00 00 7C 
  1333)      1278.353 1  Rx        0211 -  8    00 00 00 00 7B E8 23 B0 
  1334)      1278.609 1  Rx        0213 -  8    00 00 00 00 00 00 20 20 
  1335)      1278.865 1  Rx        0221 -  8    00 00 00 6B 00 60 00 00 
  1336)      1279.078 1  Rx        0231 -  8    00 00 00 40 64 FE FE 00 
  1337)      1280.059 1  Rx        02C0 -  8    FF 7F 00 84 40 00 00 00 
  1338)      1280.870 1  Rx        0120 -  8    C0 2B C0 5D 70 17 38 0F 
