;$FILEVERSION=1.3
;$STARTTIME=42905.5718937665
;
;   C:\Users\gyz\Desktop\电咖报文0619\加速前进.trc
;   Start time: 2017/6/19 13:43:31.621.4
;   Generated by PCAN-Explorer v5.3.4
;-------------------------------------------------------------------------------
;   Bus  Name         Connection         Protocol  Bit rate
;   1    Connection1  Untitled@pcan_usb  CAN       500 kbit/s
;-------------------------------------------------------------------------------
;   Message Number
;   |         Time Offset (ms)
;   |         |       Bus
;   |         |       |    Type
;   |         |       |    |       ID (hex)
;   |         |       |    |       |    Reserved
;   |         |       |    |       |    |   Data Length Code
;   |         |       |    |       |    |   |    Data Bytes (hex) ...
;   |         |       |    |       |    |   |    |
;   |         |       |    |       |    |   |    |
;---+-- ------+------ +- --+-- ----+--- +- -+-- -+ -- -- -- -- -- -- --
     1)         1.964 1  Rx        0210 -  8    01 00 00 00 00 00 00 00 
     2)         3.073 1  Rx        0150 -  8    00 00 47 63 2D 00 00 07 
     3)         3.329 1  Rx        0154 -  8    00 00 02 7B 4D 05 43 07 
     4)         3.969 1  Rx        0210 -  8    01 00 00 00 00 00 00 00 
     5)         5.036 1  Rx        0210 -  8    01 00 00 00 00 00 00 00 
     6)         5.292 1  Rx        0160 -  8    00 00 00 00 00 00 00 00 
     7)         5.548 1  Rx        0161 -  8    00 00 00 00 00 00 00 08 
     8)         6.700 1  Rx        0120 -  8    23 28 5D C0 17 6F 00 06 
     9)         6.956 1  Rx        0121 -  8    1D 64 27 F8 55 53 00 06 
    10)         7.169 1  Rx        0122 -  8    00 00 00 07 04 41 01 06 
    11)         7.425 1  Rx        0777 -  8    E8 03 E8 03 98 3A 98 3A 
    12)         7.681 1  Rx        0778 -  8    88 13 E8 03 00 00 00 00 
    13)        12.801 1  Rx        0150 -  8    00 00 47 63 2D 00 00 08 
    14)        13.014 1  Rx        0154 -  8    00 00 02 8F 4D 05 43 08 
    15)        13.697 1  Rx        0210 -  8    01 00 00 00 00 00 00 00 
    16)        14.763 1  Rx        0210 -  8    01 00 00 00 00 00 00 00 
    17)        15.105 1  Rx        0160 -  8    00 00 00 00 00 00 00 00 
    18)        15.318 1  Rx        0102 -  8    18 64 0F 0A 13 8D F2 0A 
    19)        15.574 1  Rx        0161 -  8    00 00 00 00 00 00 00 09 
    20)        15.830 1  Rx        0210 -  8    01 00 00 00 00 00 00 00 
    21)        16.683 1  Rx        0120 -  8    23 28 5D C0 17 6F 00 07 
    22)        16.939 1  Rx        0121 -  8    1D 61 27 FB 55 53 00 07 
    23)        17.195 1  Rx        0122 -  8    00 00 00 07 04 41 01 07 
    24)        17.409 1  Rx        0777 -  8    E8 03 E8 03 98 3A 98 3A 
    25)        17.665 1  Rx        0778 -  8    88 13 E8 03 00 00 00 00 
    26)        20.054 1  Rx        0380 -  8    38 10 0E 09 44 48 5C 0C 
    27)        22.529 1  Rx        0150 -  8    00 00 47 63 2D 00 00 09 
    28)        22.785 1  Rx        0154 -  8    00 00 02 7B 4D 05 43 09 
    29)        23.425 1  Rx        0210 -  8    01 00 00 00 00 00 00 00 
    30)        24.491 1  Rx        0210 -  8    01 00 00 00 00 00 00 00 
    31)        25.089 1  Rx        0160 -  8    00 00 00 00 00 00 00 00 
    32)        25.345 1  Rx        0161 -  8    00 00 00 00 00 00 00 0A 
    33)        25.601 1  Rx        0210 -  8    01 00 00 00 00 00 00 00 
    34)        26.795 1  Rx        0120 -  8    23 28 5D C0 17 6F 00 08 
    35)        27.051 1  Rx        0121 -  8    1D 62 28 01 55 53 00 08 
    36)        27.265 1  Rx        0122 -  8    00 00 00 07 04 41 01 08 
    37)        27.521 1  Rx        0151 -  8    00 00 10 6C 01 00 00 00 
    38)        27.777 1  Rx        0152 -  8    00 00 08 B3 47 01 00 00 
    39)        27.990 1  Rx        0777 -  8    E8 03 E8 03 98 3A 98 3A 
    40)        28.246 1  Rx        0778 -  8    88 13 E8 03 00 00 00 00 
    41)        31.958 1  Rx        0210 -  8    01 00 00 00 00 00 00 00 
    42)        33.195 1  Rx        0150 -  8    00 00 47 63 2D 00 00 0A 
    43)        33.451 1  Rx        0154 -  8    00 00 02 8F 4D 05 43 0A 
    44)        34.304 1  Rx        0102 -  8    18 64 0F 0A 13 8D F2 0B 
    45)        34.560 1  Rx        0210 -  8    01 00 00 00 00 00 00 00 
    46)        35.072 1  Rx        0160 -  8    00 00 00 00 00 00 00 00 
    47)        35.286 1  Rx        0115 -  8    D3 D3 00 00 00 00 00 01 
    48)        35.542 1  Rx        0161 -  8    00 00 00 00 00 00 00 0B 
    49)        35.798 1  Rx        0210 -  8    01 00 00 00 00 00 00 00 
    50)        36.694 1  Rx        0120 -  8    23 28 5D C0 17 70 00 09 
    51)        36.907 1  Rx        0121 -  8    1D 72 28 0A 55 53 00 09 
    52)        37.163 1  Rx        0122 -  8    00 00 00 07 04 41 01 09 
    53)        37.419 1  Rx        0777 -  8    E8 03 E8 03 98 3A 98 3A 
    54)        37.632 1  Rx        0778 -  8    88 13 E8 03 00 00 00 00 
    55)        38.059 1  Rx        052C -  8    03 22 01 E5 0B 29 05 D6 
    56)        38.315 1  Rx        052D -  8    04 39 05 D1 08 0D 00 32 
    57)        41.856 1  Rx        0210 -  8    01 00 00 00 00 00 00 00 
    58)        42.966 1  Rx        0150 -  8    00 00 47 63 2D 00 00 0B 
    59)        43.179 1  Rx        0154 -  8    00 00 02 7B 4D 05 43 0B 
    60)        44.160 1  Rx        0210 -  8    01 00 00 00 00 00 00 00 
    61)        44.928 1  Rx        0210 -  8    01 00 00 00 00 00 00 00 
    62)        45.184 1  Rx        0160 -  8    00 00 00 00 00 00 00 00 
    63)        45.398 1  Rx        0161 -  8    00 00 00 00 00 00 00 0C 
    64)        46.720 1  Rx        0120 -  8    23 28 5D C0 17 70 00 0A 
    65)        46.934 1  Rx        0121 -  8    1D 70 28 07 55 53 00 0A 
    66)        47.190 1  Rx        0122 -  8    00 00 00 07 04 41 01 0A 
    67)        47.403 1  Rx        0777 -  8    E8 03 E8 03 98 3A 98 3A 
    68)        47.659 1  Rx        0778 -  8    88 13 E8 03 00 00 00 00 
    69)        47.915 1  Rx        052A -  8    10 1C 06 00 00 00 00 00 
    70)        48.128 1  Rx        052B -  8    9F 91 0F 00 00 00 00 00 
    71)        52.694 1  Rx        0150 -  8    00 00 47 63 2D 00 00 0C 
    72)        52.907 1  Rx        0154 -  8    00 00 02 7B 4D 05 43 0C 
    73)        53.291 1  Rx        0102 -  8    18 64 0F 0A 13 8D F2 0C 
    74)        53.888 1  Rx        0210 -  8    01 00 00 00 00 00 00 00 
    75)        54.656 1  Rx        0210 -  8    01 00 00 00 00 00 00 00 
    76)        55.083 1  Rx        0160 -  8    00 00 00 00 00 00 00 00 
    77)        55.296 1  Rx        0161 -  8    00 00 00 00 00 00 00 0D 
    78)        55.723 1  Rx        0210 -  8    01 00 00 00 00 00 00 00 
    79)        56.789 1  Rx        0120 -  8    23 28 5D C0 17 70 00 0B 
    80)        57.045 1  Rx        0121 -  8    1D 6D 27 FB 55 53 00 0B 
    81)        57.301 1  Rx        0122 -  8    00 00 00 07 04 41 01 0B 
    82)        57.515 1  Rx        0777 -  8    E7 03 E8 03 98 3A 98 3A 
    83)        57.771 1  Rx        0153 -  8    20 00 00 00 09 00 25 0E 
    84)        57.984 1  Rx        052E -  8    00 0F 00 08 00 00 AA 41 
    85)        58.240 1  Rx        0778 -  8    88 13 E8 03 00 00 00 00 
    86)        62.464 1  Rx        0150 -  8    00 00 47 63 2D 00 00 0D 
    87)        62.677 1  Rx        0154 -  8    00 00 02 8F 4D 05 43 0D 
    88)        63.659 1  Rx        0210 -  8    01 00 00 00 00 00 00 00 
    89)        64.427 1  Rx        0210 -  8    01 00 00 00 00 00 00 00 
    90)        65.067 1  Rx        0160 -  8    00 00 00 00 00 00 00 00 
    91)        65.323 1  Rx        0161 -  8    00 00 00 00 00 00 00 0E 
    92)        65.536 1  Rx        0210 -  8    01 00 00 00 00 00 00 00 
    93)        66.389 1  Rx        0320 -  8    00 00 00 5F 00 00 00 00 
    94)        66.688 1  Rx        0120 -  8    23 28 5D C0 17 70 00 0C 
    95)        66.901 1  Rx        0121 -  8    1D 72 28 04 55 53 00 0C 
    96)        67.157 1  Rx        0122 -  8    00 00 00 07 04 41 01 0C 
    97)        67.413 1  Rx        0777 -  8    E7 03 E8 03 98 3A 98 3A 
    98)        67.627 1  Rx        0778 -  8    88 13 E8 03 00 00 00 00 
    99)        72.192 1  Rx        0210 -  8    01 00 00 00 00 00 00 00 
   100)        72.875 1  Rx        0102 -  8    18 64 0F 0A 13 8D F2 0D 
   101)        73.131 1  Rx        0190 -  8    01 00 00 00 00 00 00 00 
   102)        73.387 1  Rx        0150 -  8    00 00 47 63 2D 00 00 0E 
   103)        73.600 1  Rx        0154 -  8    00 00 02 7B 4D 05 43 0E 
   104)        74.197 1  Rx        0210 -  8    01 00 00 00 00 00 00 00 
   105)        75.008 1  Rx        0160 -  8    00 00 00 00 00 00 00 00 
   106)        75.264 1  Rx        0112 -  8    16 10 1C 30 10 0C 00 01 
   107)        75.477 1  Rx        0113 -  8    01 45 44 44 00 0D 00 01 
   108)        75.733 1  Rx        0116 -  8    2A 34 00 00 00 00 00 02 
   109)        75.989 1  Rx        0161 -  8    00 00 00 00 00 00 00 0F 
   110)        76.245 1  Rx        0210 -  8    01 00 00 00 00 00 00 00 
   111)        76.458 1  Rx        0188 -  8    40 00 B7 50 08 61 7A 10 
   112)        76.714 1  Rx        0120 -  8    23 28 5D C0 17 6F 00 0D 
   113)        76.928 1  Rx        0121 -  8    1D 64 28 0A 55 53 00 0D 
   114)        77.184 1  Rx        0122 -  8    00 00 00 07 04 41 01 0D 
   115)        77.397 1  Rx        0777 -  8    E7 03 E8 03 97 3A 97 3A 
   116)        77.653 1  Rx        0778 -  8    88 13 E8 03 00 00 00 00 
   117)        78.122 1  Rx        0114 -  8    28 28 00 28 5E 80 5E 8D 
   118)        81.237 1  Rx        0100 -  8    0E 50 13 88 63 11 00 0C 
   119)        81.920 1  Rx        0210 -  8    01 00 00 00 00 00 00 00 
   120)        83.029 1  Rx        0150 -  8    00 00 47 63 2D 00 00 0F 
   121)        83.285 1  Rx        0154 -  8    00 00 02 8F 4D 05 43 0F 
   122)        83.925 1  Rx        0210 -  8    01 00 00 00 00 00 00 00 
   123)        84.992 1  Rx        0210 -  8    01 00 00 00 00 00 00 00 
   124)        85.248 1  Rx        0160 -  8    00 00 00 00 00 00 00 00 
   125)        85.504 1  Rx        0161 -  8    00 00 00 00 00 00 00 00 
   126)        86.741 1  Rx        0120 -  8    23 28 5D C0 17 6F 00 0E 
   127)        86.954 1  Rx        0121 -  8    1D 66 28 01 55 53 00 0E 
   128)        87.210 1  Rx        0122 -  8    00 00 00 07 04 41 01 0E 
   129)        87.424 1  Rx        0777 -  8    E7 03 E8 03 97 3A 97 3A 
   130)        87.680 1  Rx        0778 -  8    88 13 E8 03 00 00 00 00 
   131)        92.074 1  Rx        0102 -  8    18 64 0F 0A 13 8D F2 0E 
   132)        92.800 1  Rx        0150 -  8    00 00 47 63 2D 00 00 00 
   133)        93.013 1  Rx        0154 -  8    00 00 02 8F 4D 05 43 00 
   134)        93.653 1  Rx        0210 -  8    01 00 00 00 00 00 00 00 
   135)        94.762 1  Rx        0210 -  8    01 00 00 00 00 00 00 00 
   136)        95.018 1  Rx        0160 -  8    00 00 00 00 00 00 00 00 
   137)        95.274 1  Rx        0161 -  8    00 00 00 00 00 00 00 01 
   138)        95.530 1  Rx        0210 -  8    01 00 00 00 00 00 00 00 
   139)        96.682 1  Rx        0120 -  8    23 28 5D C0 17 70 00 0F 
   140)        96.938 1  Rx        0121 -  8    1D 64 27 FE 55 53 00 0F 
   141)        97.194 1  Rx        0122 -  8    00 00 00 07 04 41 01 0F 
   142)        97.408 1  Rx        0777 -  8    E7 03 E8 03 97 3A 97 3A 
   143)        97.664 1  Rx        0778 -  8    88 13 E8 03 00 00 00 00 
   144)       102.527 1  Rx        0150 -  8    00 00 47 63 2D 00 00 01 
   145)       102.741 1  Rx        0154 -  8    00 00 02 8F 4D 05 43 01 
   146)       103.423 1  Rx        0210 -  8    01 00 00 00 00 00 00 00 
   147)       104.490 1  Rx        0210 -  8    01 00 00 00 00 00 00 00 
   148)       105.045 1  Rx        0160 -  8    00 00 00 00 00 00 00 00 
   149)       105.258 1  Rx        0161 -  8    00 00 00 00 00 00 00 02 
   150)       105.514 1  Rx        0210 -  8    01 00 00 00 00 00 00 00 
   151)       106.709 1  Rx        0120 -  8    23 28 5D C0 17 6F 00 00 
   152)       106.965 1  Rx        0121 -  8    1D 70 28 04 55 53 00 00 
   153)       107.178 1  Rx        0122 -  8    00 00 00 07 04 41 01 00 
   154)       107.434 1  Rx        0777 -  8    E7 03 E8 03 97 3A 97 3A 
   155)       107.647 1  Rx        0778 -  8    88 13 E8 03 00 00 00 00 
   156)       110.207 1  Rx        0102 -  8    18 64 0F 0A 13 8D F2 0F 
   157)       111.914 1  Rx        0210 -  8    01 00 00 00 00 00 00 00 
   158)       113.023 1  Rx        0150 -  8    00 00 47 63 2D 00 00 02 
   159)       113.237 1  Rx        0154 -  8    00 00 02 8F 4D 05 43 02 
   160)       114.175 1  Rx        0210 -  8    01 00 00 00 00 00 00 00 
   161)       114.986 1  Rx        0210 -  8    01 00 00 00 00 00 00 00 
   162)       115.199 1  Rx        0160 -  8    00 00 00 00 00 00 00 00 
   163)       115.455 1  Rx        0161 -  8    00 00 00 00 00 00 00 03 
   164)       116.735 1  Rx        0120 -  8    23 28 5D C0 17 6F 00 01 
   165)       116.949 1  Rx        0121 -  8    1D 6D 28 07 55 53 00 01 
   166)       117.205 1  Rx        0122 -  8    00 00 00 07 04 41 01 01 
   167)       117.461 1  Rx        0777 -  8    E7 03 E8 03 97 3A 97 3A 
   168)       117.674 1  Rx        0778 -  8    88 13 E8 03 00 00 00 00 
   169)       120.063 1  Rx        0380 -  8    39 10 10 01 45 48 5C 0D 
   170)       122.751 1  Rx        0150 -  8    00 00 47 63 2D 00 00 03 
   171)       122.964 1  Rx        0154 -  8    00 00 02 7B 4D 05 43 03 
   172)       123.903 1  Rx        0210 -  8    01 00 00 00 00 00 00 00 
   173)       124.714 1  Rx        0210 -  8    01 00 00 00 00 00 00 00 
   174)       124.970 1  Rx        0160 -  8    00 00 00 00 00 00 00 00 
   175)       125.226 1  Rx        0105 -  8    00 00 00 00 00 00 00 0A 
   176)       125.482 1  Rx        0161 -  8    00 00 00 00 00 00 00 04 
   177)       125.780 1  Rx        0210 -  8    01 00 00 00 00 00 00 00 
   178)       126.719 1  Rx        0120 -  8    23 28 5D C0 17 70 00 02 
   179)       126.932 1  Rx        0121 -  8    1D 73 28 07 55 53 00 02 
   180)       127.188 1  Rx        0122 -  8    00 00 00 07 04 41 01 02 
   181)       127.402 1  Rx        0777 -  8    E7 03 E8 03 97 3A 97 3A 
   182)       127.658 1  Rx        0151 -  8    00 00 10 6C 01 00 00 01 
   183)       127.871 1  Rx        0152 -  8    00 00 08 B3 47 01 00 01 
   184)       128.127 1  Rx        0778 -  8    88 13 E8 03 00 00 00 00 
   185)       129.108 1  Rx        0102 -  8    18 64 0F 0A 13 8D F2 00 
   186)       132.479 1  Rx        0150 -  8    00 00 47 63 2D 00 00 04 
   187)       132.692 1  Rx        0154 -  8    00 00 02 8F 4D 05 43 04 
   188)       133.204 1  Rx        0115 -  8    D3 D3 00 00 00 00 00 02 
   189)       133.674 1  Rx        0210 -  8    01 00 00 00 00 00 00 00 
   190)       134.442 1  Rx        0210 -  8    01 00 00 00 00 00 00 00 
   191)       134.996 1  Rx        0160 -  8    00 00 00 00 00 00 00 00 
   192)       135.252 1  Rx        0161 -  8    00 00 00 00 00 00 00 05 
   193)       135.508 1  Rx        0210 -  8    01 00 00 00 00 00 00 00 
   194)       136.703 1  Rx        0120 -  8    23 28 5D C0 17 70 00 03 
   195)       136.959 1  Rx        0121 -  8    1D 65 28 01 55 53 00 03 
   196)       137.172 1  Rx        0122 -  8    00 00 00 07 04 41 01 03 
   197)       137.428 1  Rx        0777 -  8    E7 03 E8 03 97 3A 97 3A 
   198)       137.642 1  Rx        0778 -  8    88 13 E8 03 00 00 00 00 
   199)       138.410 1  Rx        052C -  8    03 0F 01 D4 0B 54 05 DD 
   200)       138.666 1  Rx        052D -  8    04 56 05 E1 07 C8 00 32 
   201)       142.207 1  Rx        0210 -  8    01 00 00 00 00 00 00 00 
   202)       143.273 1  Rx        0150 -  8    00 00 47 63 2D 00 00 05 
   203)       143.529 1  Rx        0154 -  8    00 00 02 8F 4D 05 43 05 
   204)       144.169 1  Rx        0210 -  8    01 00 00 00 00 00 00 00 
   205)       144.937 1  Rx        0160 -  8    00 00 00 00 00 00 00 00 
   206)       145.193 1  Rx        0161 -  8    00 00 00 00 00 00 00 06 
   207)       145.449 1  Rx        0210 -  8    01 00 00 00 00 00 00 00 
   208)       146.729 1  Rx        0120 -  8    23 28 5D C0 17 6F 00 04 
   209)       146.943 1  Rx        0121 -  8    1D 60 27 F5 55 53 00 04 
   210)       147.199 1  Rx        0122 -  8    00 00 00 07 04 41 01 04 
   211)       147.412 1  Rx        0777 -  8    E7 03 E8 03 97 3A 97 3A 
   212)       147.668 1  Rx        0778 -  8    88 13 E8 03 00 00 00 00 
   213)       148.137 1  Rx        0102 -  8    18 64 0F 0A 13 8D F2 01 
   214)       148.393 1  Rx        052A -  8    10 1C 06 00 00 00 00 00 
   215)       148.649 1  Rx        052B -  8    9F 91 0F 00 00 00 00 00 
   216)       151.935 1  Rx        0210 -  8    01 00 00 00 00 00 00 00 
   217)       153.001 1  Rx        0150 -  8    00 00 47 63 2D 00 00 06 
   218)       153.257 1  Rx        0154 -  8    00 00 02 8F 4D 05 43 06 
   219)       153.940 1  Rx        0210 -  8    01 00 00 00 00 00 00 00 
   220)       154.964 1  Rx        0160 -  8    00 00 00 00 00 00 00 00 
   221)       155.220 1  Rx        0161 -  8    00 00 00 00 00 00 00 07 
   222)       155.476 1  Rx        0210 -  8    01 00 00 00 00 00 00 00 
   223)       156.799 1  Rx        0120 -  8    23 28 5D C0 17 6F 00 05 
   224)       157.012 1  Rx        0121 -  8    1D 6F 27 FB 55 53 00 05 
   225)       157.268 1  Rx        0122 -  8    00 00 00 07 04 41 01 05 
   226)       157.481 1  Rx        0777 -  8    E7 03 E8 03 97 3A 97 3A 
   227)       157.737 1  Rx        0778 -  8    88 13 E8 03 00 00 00 00 
   228)       157.951 1  Rx        052E -  8    00 0F 00 08 00 00 AA 41 
   229)       158.207 1  Rx        0153 -  8    20 00 00 00 09 00 25 08 
   230)       162.772 1  Rx        0150 -  8    00 00 47 63 2D 00 00 07 
   231)       162.985 1  Rx        0154 -  8    00 00 02 8F 4D 05 43 07 
   232)       163.668 1  Rx        0210 -  8    01 00 00 00 00 00 00 00 
   233)       164.734 1  Rx        0210 -  8    01 00 00 00 00 00 00 00 
   234)       164.990 1  Rx        0160 -  8    00 00 00 00 00 00 00 00 
   235)       165.204 1  Rx        0161 -  8    00 00 00 00 00 00 00 08 
   236)       165.502 1  Rx        0210 -  8    01 00 00 00 00 00 00 00 
   237)       166.526 1  Rx        0320 -  8    00 00 00 5F 00 00 00 00 
   238)       166.740 1  Rx        0120 -  8    23 28 5D C0 17 6F 00 06 
   239)       166.996 1  Rx        0121 -  8    1D 6B 28 01 55 53 00 06 
   240)       167.209 1  Rx        0122 -  8    00 00 00 07 04 41 01 06 
   241)       167.465 1  Rx        0777 -  8    E7 03 E8 03 97 3A 97 3A 
   242)       167.678 1  Rx        0778 -  8    88 13 E8 03 00 00 00 00 
   243)       168.148 1  Rx        0102 -  8    18 64 0F 0A 13 8D F2 02 
   244)       172.500 1  Rx        0150 -  8    00 00 47 63 2D 00 00 08 
   245)       172.713 1  Rx        0154 -  8    00 00 02 8F 4D 05 43 08 
   246)       173.097 1  Rx        0190 -  8    01 00 00 00 00 00 00 00 
   247)       173.396 1  Rx        0210 -  8    01 00 00 00 00 00 00 00 
   248)       174.462 1  Rx        0210 -  8    01 00 00 00 00 00 00 00 
   249)       174.932 1  Rx        0160 -  8    00 00 00 00 00 00 00 00 
   250)       175.188 1  Rx        0161 -  8    00 00 00 00 00 00 00 09 
   251)       175.444 1  Rx        0210 -  8    01 00 00 00 00 00 00 00 
   252)       176.254 1  Rx        0114 -  8    28 28 00 28 5E 80 5E 8E 
   253)       176.468 1  Rx        0188 -  8    40 00 B5 50 08 61 7A 10 
   254)       176.724 1  Rx        0120 -  8    23 28 5D C0 17 6F 00 07 
   255)       176.937 1  Rx        0121 -  8    1D 71 28 07 55 53 00 07 
   256)       177.193 1  Rx        0116 -  8    2A 34 00 00 00 00 00 03 
   257)       177.449 1  Rx        0122 -  8    00 00 00 07 04 41 01 07 
   258)       177.662 1  Rx        0777 -  8    E7 03 E8 03 97 3A 97 3A 
   259)       177.918 1  Rx        0778 -  8    88 13 E8 03 00 00 00 00 
   260)       182.996 1  Rx        0100 -  8    0E 50 13 88 63 11 00 0D 
   261)       183.209 1  Rx        0150 -  8    00 00 47 63 2D 00 00 09 
   262)       183.465 1  Rx        0154 -  8    00 00 02 8F 4D 05 43 09 
   263)       184.190 1  Rx        0210 -  8    01 00 00 00 00 00 00 00 
   264)       184.915 1  Rx        0160 -  8    00 00 00 00 00 00 00 00 
   265)       185.129 1  Rx        0161 -  8    00 00 00 00 00 00 00 0A 
   266)       185.385 1  Rx        0210 -  8    01 00 00 00 00 00 00 00 
   267)       186.067 1  Rx        0210 -  8    01 00 00 00 00 00 00 00 
   268)       186.750 1  Rx        0120 -  8    23 28 5D C0 17 6F 00 08 
   269)       187.006 1  Rx        0121 -  8    1D 63 28 01 55 53 00 08 
   270)       187.219 1  Rx        0102 -  8    18 64 0F 0A 13 8D F2 03 
   271)       187.475 1  Rx        0122 -  8    00 00 00 07 04 41 01 08 
   272)       187.689 1  Rx        0777 -  8    E7 03 E8 03 97 3A 97 3A 
   273)       187.945 1  Rx        0778 -  8    88 13 E8 03 00 00 00 00 
   274)       192.766 1  Rx        0150 -  8    00 00 47 63 2D 00 00 0A 
   275)       192.979 1  Rx        0154 -  8    00 00 02 8F 4D 05 43 0A 
   276)       193.961 1  Rx        0210 -  8    01 00 00 00 00 00 00 00 
   277)       194.729 1  Rx        0210 -  8    01 00 00 00 00 00 00 00 
   278)       194.985 1  Rx        0160 -  8    00 00 00 00 00 00 00 00 
   279)       195.198 1  Rx        0161 -  8    00 00 00 00 00 00 00 0B 
   280)       195.795 1  Rx        0210 -  8    01 00 00 00 00 00 00 00 
   281)       196.734 1  Rx        0120 -  8    23 28 5D C0 17 6F 00 09 
   282)       196.947 1  Rx        0121 -  8    1D 64 27 FB 55 53 00 09 
   283)       197.203 1  Rx        0122 -  8    00 00 00 07 04 41 01 09 
   284)       197.417 1  Rx        0777 -  8    E8 03 E8 03 97 3A 97 3A 
   285)       197.673 1  Rx        0778 -  8    88 13 E8 03 00 00 00 00 
   286)       202.494 1  Rx        0150 -  8    00 00 47 63 2D 00 00 0B 
   287)       202.707 1  Rx        0154 -  8    00 00 02 8F 4D 05 43 0B 
   288)       203.689 1  Rx        0210 -  8    01 00 00 00 00 00 00 00 
   289)       204.456 1  Rx        0210 -  8    01 00 00 00 00 00 00 00 
   290)       204.926 1  Rx        0160 -  8    00 00 00 00 00 00 00 00 
   291)       205.139 1  Rx        0161 -  8    00 00 00 00 00 00 00 0C 
   292)       205.523 1  Rx        0210 -  8    01 00 00 00 00 00 00 00 
   293)       206.206 1  Rx        0102 -  8    18 64 0F 0A 13 8D F2 04 
   294)       206.718 1  Rx        0120 -  8    23 28 5D C0 17 70 00 0A 
   295)       206.974 1  Rx        0121 -  8    1D 60 28 0A 55 53 00 0A 
   296)       207.187 1  Rx        0122 -  8    00 00 00 07 04 41 01 0A 
   297)       207.443 1  Rx        0777 -  8    E8 03 E8 03 98 3A 98 3A 
   298)       207.656 1  Rx        0778 -  8    88 13 E8 03 00 00 00 00 
   299)       212.222 1  Rx        0210 -  8    01 00 00 00 00 00 00 00 
   300)       213.288 1  Rx        0150 -  8    00 00 47 63 2D 00 00 0C 
   301)       213.502 1  Rx        0154 -  8    00 00 02 8F 4D 05 43 0C 
   302)       214.184 1  Rx        0210 -  8    01 00 00 00 00 00 00 00 
   303)       214.867 1  Rx        0160 -  8    00 00 00 00 00 00 00 00 
   304)       215.123 1  Rx        0161 -  8    00 00 00 00 00 00 00 0D 
   305)       215.379 1  Rx        0210 -  8    01 00 00 00 00 00 00 00 
   306)       216.702 1  Rx        0120 -  8    23 28 5D C0 17 70 00 0B 
   307)       216.958 1  Rx        0121 -  8    1D 76 27 FB 55 53 00 0B 
   308)       217.171 1  Rx        0122 -  8    00 00 00 07 04 41 01 0B 
   309)       217.427 1  Rx        0777 -  8    E8 03 E8 03 98 3A 98 3A 
   310)       217.640 1  Rx        0778 -  8    88 13 E8 03 00 00 00 00 
   311)       219.902 1  Rx        0380 -  8    3A 10 11 02 45 48 5C 0E 
   312)       221.950 1  Rx        0210 -  8    01 00 00 00 00 00 00 00 
   313)       223.016 1  Rx        0150 -  8    00 00 47 63 2D 00 00 0D 
   314)       223.230 1  Rx        0154 -  8    00 00 02 8F 4D 05 43 0D 
   315)       223.912 1  Rx        0210 -  8    01 00 00 00 00 00 00 00 
   316)       224.936 1  Rx        0160 -  8    00 00 00 00 00 00 00 00 
   317)       225.192 1  Rx        0161 -  8    00 00 00 00 00 00 00 0E 
   318)       225.406 1  Rx        0102 -  8    18 64 0F 0A 13 8D F2 05 
   319)       225.662 1  Rx        0210 -  8    01 00 00 00 00 00 00 00 
   320)       226.813 1  Rx        0120 -  8    23 28 5D C0 17 6F 00 0C 
   321)       227.027 1  Rx        0121 -  8    1D 6E 28 07 55 53 00 0C 
   322)       227.283 1  Rx        0122 -  8    00 00 00 07 04 41 01 0C 
   323)       227.496 1  Rx        0777 -  8    E8 03 E8 03 98 3A 98 3A 
   324)       227.752 1  Rx        0778 -  8    88 13 E8 03 00 00 00 00 
   325)       227.965 1  Rx        0151 -  8    00 00 10 6C 01 00 00 02 
   326)       228.221 1  Rx        0152 -  8    00 00 08 B3 47 01 00 02 
   327)       232.829 1  Rx        0115 -  8    D3 D3 00 00 00 00 00 03 
   328)       233.043 1  Rx        0150 -  8    00 00 47 63 2D 00 00 0E 
   329)       233.299 1  Rx        0154 -  8    00 00 02 8F 4D 05 43 0E 
   330)       233.768 1  Rx        0210 -  8    01 00 00 00 00 00 00 00 
   331)       234.877 1  Rx        0210 -  8    01 00 00 00 00 00 00 00 
   332)       235.091 1  Rx        0160 -  8    00 00 00 00 00 00 00 00 
   333)       235.347 1  Rx        0161 -  8    00 00 00 00 00 00 00 0F 
   334)       235.645 1  Rx        0210 -  8    01 00 00 00 00 00 00 00 
   335)       236.712 1  Rx        0120 -  8    23 28 5D C0 17 70 00 0D 
   336)       236.968 1  Rx        0121 -  8    1D 71 28 04 55 53 00 0D 
   337)       237.181 1  Rx        0122 -  8    00 00 00 07 04 41 01 0D 
   338)       237.437 1  Rx        0777 -  8    E8 03 E8 03 98 3A 98 3A 
   339)       237.693 1  Rx        0778 -  8    88 13 E8 03 00 00 00 00 
   340)       237.907 1  Rx        052C -  8    03 2E 01 EA 0B 84 05 F8 
   341)       238.163 1  Rx        052D -  8    04 69 05 C0 07 D2 00 32 
   342)       242.643 1  Rx        0150 -  8    00 00 47 63 2D 00 00 0F 
   343)       242.899 1  Rx        0154 -  8    00 00 02 8F 4D 05 43 0F 
   344)       243.539 1  Rx        0210 -  8    01 00 00 00 00 00 00 00 
   345)       244.136 1  Rx        0102 -  8    18 64 0F 0A 13 8D F2 06 
   346)       244.605 1  Rx        0210 -  8    01 00 00 00 00 00 00 00 
   347)       244.861 1  Rx        0160 -  8    00 00 00 00 00 00 00 00 
   348)       245.117 1  Rx        0161 -  8    00 00 00 00 00 00 00 00 
   349)       245.373 1  Rx        0210 -  8    01 00 00 00 00 00 00 00 
   350)       246.696 1  Rx        0120 -  8    23 28 5D C0 17 6F 00 0E 
   351)       246.952 1  Rx        0121 -  8    1D 5B 28 11 55 53 00 0E 
   352)       247.165 1  Rx        0122 -  8    00 00 00 07 04 41 01 0E 
   353)       247.421 1  Rx        0777 -  8    E8 03 E8 03 98 3A 98 3A 
   354)       247.634 1  Rx        052A -  8    10 1C 06 00 00 00 00 00 
   355)       247.890 1  Rx        052B -  8    9F 91 0F 00 00 00 00 00 
   356)       248.146 1  Rx        0778 -  8    88 13 E8 03 00 00 00 00 
   357)       252.072 1  Rx        0210 -  8    01 00 00 00 00 00 00 00 
   358)       253.181 1  Rx        0150 -  8    00 00 47 63 2D 00 00 00 
   359)       253.394 1  Rx        0154 -  8    00 00 02 8F 4D 05 43 00 
   360)       254.376 1  Rx        0210 -  8    01 00 00 00 00 00 00 00 
   361)       254.845 1  Rx        0160 -  8    00 00 00 00 00 00 00 00 
   362)       255.058 1  Rx        0161 -  8    00 00 00 00 00 00 00 01 
   363)       255.314 1  Rx        0210 -  8    01 00 00 00 00 00 00 00 
   364)       256.808 1  Rx        0120 -  8    23 28 5D C0 17 6F 00 0F 
   365)       257.021 1  Rx        0121 -  8    1D 69 27 FB 55 53 00 0F 
   366)       257.277 1  Rx        0122 -  8    00 00 00 07 04 41 01 0F 
   367)       257.490 1  Rx        0777 -  8    E7 03 E8 03 98 3A 98 3A 
   368)       257.746 1  Rx        0778 -  8    88 13 E8 03 00 00 00 00 
   369)       258.045 1  Rx        052E -  8    00 0F 00 08 00 00 AA 41 
   370)       258.301 1  Rx        0153 -  8    20 00 00 00 09 00 25 02 
   371)       262.909 1  Rx        0150 -  8    00 00 47 63 2D 00 00 01 
   372)       263.165 1  Rx        0154 -  8    00 00 02 8F 4D 05 43 01 
   373)       263.378 1  Rx        0102 -  8    18 64 0F 0A 13 8D F2 07 
   374)       264.104 1  Rx        0210 -  8    01 00 00 00 00 00 00 00 
   375)       264.872 1  Rx        0160 -  8    00 00 00 00 00 00 00 00 
   376)       265.128 1  Rx        0161 -  8    00 00 00 00 00 00 00 02 
   377)       265.341 1  Rx        0210 -  8    01 00 00 00 00 00 00 00 
   378)       265.938 1  Rx        0210 -  8    01 00 00 00 00 00 00 00 
   379)       266.621 1  Rx        0320 -  8    00 00 00 5F 00 00 00 00 
   380)       266.834 1  Rx        0120 -  8    23 28 5D C0 17 6F 00 00 
   381)       267.090 1  Rx        0121 -  8    1D 62 28 01 55 53 00 00 
   382)       267.346 1  Rx        0122 -  8    00 00 00 07 04 41 01 00 
   383)       267.560 1  Rx        0777 -  8    E7 03 E8 03 97 3A 97 3A 
   384)       267.816 1  Rx        0778 -  8    88 13 E8 03 00 00 00 00 
   385)       272.637 1  Rx        0150 -  8    00 00 47 63 2D 00 00 02 
   386)       272.893 1  Rx        0154 -  8    00 00 02 8F 4D 05 43 02 
   387)       273.149 1  Rx        0190 -  8    01 00 00 00 00 00 00 00 
   388)       273.405 1  Rx        0114 -  8    28 28 00 28 5E 80 5E 8F 
   389)       273.831 1  Rx        0210 -  8    01 00 00 00 00 00 00 00 
   390)       274.642 1  Rx        0210 -  8    01 00 00 00 00 00 00 00 
   391)       274.898 1  Rx        0160 -  8    00 00 00 00 00 00 00 00 
   392)       275.111 1  Rx        0161 -  8    00 00 00 00 00 00 00 03 
   393)       275.709 1  Rx        0210 -  8    01 00 00 00 00 00 00 00 
   394)       276.306 1  Rx        0188 -  8    40 00 B5 50 08 61 7A 10 
   395)       276.690 1  Rx        0120 -  8    23 28 5D C0 17 70 00 01 
   396)       276.946 1  Rx        0121 -  8    1D 6F 28 04 55 53 00 01 
   397)       277.202 1  Rx        0122 -  8    00 00 00 07 04 41 01 01 
   398)       277.415 1  Rx        0777 -  8    E7 03 E8 03 97 3A 97 3A 
   399)       277.671 1  Rx        0778 -  8    88 13 E8 03 00 00 00 00 
   400)       278.141 1  Rx        0112 -  8    16 10 1C 30 10 0C 00 02 
   401)       278.354 1  Rx        0113 -  8    01 45 44 44 00 0D 00 02 
   402)       278.610 1  Rx        0116 -  8    2A 34 00 00 00 00 00 04 
   403)       282.407 1  Rx        0210 -  8    01 00 00 00 00 00 00 00 
   404)       282.919 1  Rx        0100 -  8    0E 50 13 88 63 11 00 0E 
   405)       283.133 1  Rx        0102 -  8    18 64 0F 0A 13 8D F2 08 
   406)       283.474 1  Rx        0150 -  8    00 00 47 63 2D 00 00 03 
   407)       283.730 1  Rx        0154 -  8    00 00 02 8F 4D 05 43 03 
   408)       284.370 1  Rx        0210 -  8    01 00 00 00 00 00 00 00 
   409)       284.797 1  Rx        0160 -  8    00 00 00 00 00 00 00 00 
   410)       285.053 1  Rx        0161 -  8    00 00 00 00 00 00 00 04 
   411)       285.437 1  Rx        0210 -  8    01 00 00 00 00 00 00 00 
   412)       286.759 1  Rx        0120 -  8    23 28 5D C0 17 6F 00 02 
   413)       286.973 1  Rx        0121 -  8    1D 71 28 01 55 53 00 02 
   414)       287.229 1  Rx        0122 -  8    00 00 00 07 04 41 01 02 
   415)       287.442 1  Rx        0777 -  8    E7 03 E8 03 97 3A 97 3A 
   416)       287.698 1  Rx        0778 -  8    88 13 E8 03 00 00 00 00 
   417)       292.135 1  Rx        0210 -  8    01 00 00 00 00 00 00 00 
   418)       293.244 1  Rx        0150 -  8    00 00 47 63 2D 00 00 04 
   419)       293.458 1  Rx        0154 -  8    00 00 02 8F 4D 05 43 04 
   420)       294.140 1  Rx        0210 -  8    01 00 00 00 00 00 00 00 
   421)       294.823 1  Rx        0160 -  8    00 00 00 00 00 00 00 00 
   422)       295.079 1  Rx        0161 -  8    00 00 00 00 00 00 00 05 
   423)       295.335 1  Rx        0210 -  8    01 00 00 00 00 00 00 00 
   424)       296.743 1  Rx        0120 -  8    23 28 5D C0 17 6F 00 03 
   425)       296.956 1  Rx        0121 -  8    1D 6E 27 F8 55 53 00 03 
   426)       297.212 1  Rx        0122 -  8    00 00 00 07 04 41 01 03 
   427)       297.426 1  Rx        0777 -  8    E7 03 E8 03 97 3A 97 3A 
   428)       297.682 1  Rx        0778 -  8    88 13 E8 03 00 00 00 00 
   429)       301.180 1  Rx        0102 -  8    18 64 0F 0A 13 8D F2 09 
   430)       301.906 1  Rx        0210 -  8    01 00 00 00 00 00 00 00 
   431)       302.972 1  Rx        0150 -  8    00 00 47 63 2D 00 00 05 
   432)       303.228 1  Rx        0154 -  8    00 00 02 8F 4D 05 43 05 
   433)       303.868 1  Rx        0210 -  8    01 00 00 00 00 00 00 00 
   434)       304.807 1  Rx        0160 -  8    00 00 00 00 00 00 00 00 
   435)       305.063 1  Rx        0161 -  8    00 00 00 00 00 00 00 06 
   436)       305.319 1  Rx        0210 -  8    01 00 00 00 00 00 00 00 
   437)       306.727 1  Rx        0120 -  8    23 28 5D C0 17 6F 00 04 
   438)       306.940 1  Rx        0121 -  8    1D 6A 28 11 55 53 00 04 
   439)       307.196 1  Rx        0122 -  8    00 00 00 07 04 41 01 04 
   440)       307.410 1  Rx        0777 -  8    E7 03 E8 03 97 3A 97 3A 
   441)       307.666 1  Rx        0778 -  8    88 13 E8 03 00 00 00 00 
   442)       312.700 1  Rx        0150 -  8    00 00 47 63 2D 00 00 06 
   443)       312.956 1  Rx        0154 -  8    00 00 02 8F 4D 05 43 06 
   444)       313.596 1  Rx        0210 -  8    01 00 00 00 00 00 00 00 
   445)       314.663 1  Rx        0210 -  8    01 00 00 00 00 00 00 00 
   446)       314.919 1  Rx        0160 -  8    00 00 00 00 00 00 00 00 
   447)       315.175 1  Rx        0161 -  8    00 00 00 00 00 00 00 07 
   448)       315.431 1  Rx        0210 -  8    01 00 00 00 00 00 00 00 
   449)       316.753 1  Rx        0120 -  8    23 28 5D C0 17 6F 00 05 
   450)       316.967 1  Rx        0121 -  8    1D 61 28 07 55 53 00 05 
   451)       317.223 1  Rx        0122 -  8    00 00 00 07 04 41 01 05 
   452)       317.436 1  Rx        0777 -  8    E7 03 E8 03 97 3A 97 3A 
   453)       317.692 1  Rx        0778 -  8    88 13 E8 03 00 00 00 00 
   454)       320.081 1  Rx        0380 -  8    3B 10 11 03 44 48 5C 0F 
   455)       320.337 1  Rx        0102 -  8    18 64 0F 0A 13 8D F2 0A 
   456)       322.129 1  Rx        0210 -  8    01 00 00 00 00 00 00 00 
   457)       323.239 1  Rx        0150 -  8    00 00 47 63 2D 00 00 07 
   458)       323.452 1  Rx        0154 -  8    00 00 02 8F 4D 05 43 07 
   459)       324.433 1  Rx        0210 -  8    01 00 00 00 00 00 00 00 
   460)       324.775 1  Rx        0160 -  8    00 00 00 00 00 00 00 00 
   461)       324.988 1  Rx        0161 -  8    00 00 00 00 00 00 00 08 
   462)       325.244 1  Rx        0210 -  8    01 00 00 00 00 00 00 00 
   463)       326.780 1  Rx        0120 -  8    23 28 5D C0 17 6F 00 06 
   464)       326.993 1  Rx        0121 -  8    1D 67 27 FB 55 53 00 06 
   465)       327.249 1  Rx        0122 -  8    00 00 00 07 04 41 01 06 
   466)       327.463 1  Rx        0777 -  8    E8 03 E8 03 97 3A 98 3A 
   467)       327.719 1  Rx        0778 -  8    88 13 E8 03 00 00 00 00 
   468)       328.145 1  Rx        0151 -  8    00 00 10 6C 01 00 00 03 
   469)       328.359 1  Rx        0152 -  8    00 00 0C B3 47 01 00 03 
   470)       328.615 1  Rx        015F -  8    00 00 00 00 00 00 00 00 
   471)       330.321 1  Rx        0115 -  8    D3 D3 00 00 00 00 00 04 
   472)       331.943 1  Rx        0210 -  8    01 00 00 00 00 00 00 00 
   473)       333.052 1  Rx        0150 -  8    00 00 47 63 2D 00 00 08 
   474)       333.265 1  Rx        0154 -  8    00 00 02 8F 4D 05 43 08 
   475)       334.246 1  Rx        0210 -  8    01 00 00 00 00 00 00 00 
   476)       334.801 1  Rx        0160 -  8    00 00 00 00 00 00 00 00 
   477)       335.057 1  Rx        0161 -  8    00 00 00 00 00 00 00 09 
   478)       335.270 1  Rx        0210 -  8    01 00 00 00 00 00 00 00 
   479)       336.721 1  Rx        0120 -  8    23 28 5D C0 17 70 00 07 
   480)       336.934 1  Rx        0121 -  8    1D 66 28 04 55 53 00 07 
   481)       337.190 1  Rx        0122 -  8    00 00 00 07 04 41 01 07 
   482)       337.404 1  Rx        0777 -  8    E8 03 E8 03 98 3A 98 3A 
   483)       337.660 1  Rx        0778 -  8    88 13 E8 03 00 00 00 00 
   484)       337.958 1  Rx        052C -  8    03 22 01 EA 0B B2 06 19 
   485)       338.172 1  Rx        052D -  8    04 62 05 C4 07 FE 00 32 
   486)       339.196 1  Rx        0102 -  8    18 64 0F 0A 13 8D F2 0B 
   487)       342.865 1  Rx        0150 -  8    00 00 47 63 2D 00 00 09 
   488)       343.078 1  Rx        0154 -  8    00 00 02 8F 4D 05 43 09 
   489)       344.060 1  Rx        0210 -  8    01 00 00 00 00 00 00 00 
   490)       344.785 1  Rx        0160 -  8    00 00 00 00 00 00 00 00 
   491)       345.041 1  Rx        0161 -  8    00 00 00 00 00 00 00 0A 
   492)       345.297 1  Rx        0210 -  8    01 00 00 00 00 00 00 00 
   493)       345.894 1  Rx        0210 -  8    01 00 00 00 00 00 00 00 
   494)       346.748 1  Rx        0120 -  8    23 28 5D C0 17 6F 00 08 
   495)       346.961 1  Rx        0121 -  8    1D 6F 27 F2 55 53 00 08 
   496)       347.217 1  Rx        0122 -  8    00 00 00 07 04 41 01 08 
   497)       347.430 1  Rx        0777 -  8    E8 03 E8 03 98 3A 98 3A 
   498)       347.686 1  Rx        0778 -  8    88 13 E8 03 00 00 00 00 
   499)       347.942 1  Rx        052A -  8    04 1C 06 00 00 00 00 00 
   500)       348.156 1  Rx        052B -  8    9F 91 0F 00 00 00 00 00 
   501)       352.721 1  Rx        0150 -  8    00 00 47 63 2D 00 00 0A 
   502)       352.934 1  Rx        0154 -  8    00 00 02 8F 4D 05 43 0A 
   503)       353.915 1  Rx        0210 -  8    01 00 00 00 00 00 00 00 
   504)       354.683 1  Rx        0210 -  8    01 00 00 00 00 00 00 00 
   505)       354.939 1  Rx        0160 -  8    00 00 00 00 00 00 00 00 
   506)       355.153 1  Rx        0161 -  8    00 00 00 00 00 00 00 0B 
   507)       355.750 1  Rx        0210 -  8    01 00 00 00 00 00 00 00 
   508)       356.774 1  Rx        0120 -  8    23 28 5D C0 17 70 00 09 
   509)       356.987 1  Rx        0121 -  8    1D 72 28 01 55 53 00 09 
   510)       357.243 1  Rx        0122 -  8    00 00 00 07 04 41 01 09 
   511)       357.499 1  Rx        0777 -  8    E8 03 E8 03 98 3A 98 3A 
   512)       357.713 1  Rx        0153 -  8    30 00 00 00 09 00 25 0C 
   513)       357.969 1  Rx        052E -  8    00 0F 00 08 00 00 AA 41 
   514)       358.182 1  Rx        0102 -  8    18 64 0F 0A 13 8D F2 0C 
   515)       358.438 1  Rx        0778 -  8    88 13 E8 03 00 00 00 00 
   516)       362.577 1  Rx        0150 -  8    00 00 47 6B 2D 00 04 0B 
   517)       362.833 1  Rx        0154 -  8    00 00 02 8F 4D 05 43 0B 
   518)       363.771 1  Rx        0210 -  8    01 00 00 00 00 00 00 00 
   519)       364.539 1  Rx        0210 -  8    01 00 00 00 00 00 00 00 
   520)       364.795 1  Rx        0160 -  8    00 00 00 00 00 00 00 00 
   521)       365.051 1  Rx        0161 -  8    00 00 00 00 00 00 00 0C 
   522)       365.649 1  Rx        0210 -  8    01 00 00 00 00 00 00 00 
   523)       366.715 1  Rx        0120 -  8    23 28 5D C0 17 70 00 0A 
   524)       366.929 1  Rx        0121 -  8    1D 72 28 01 55 53 00 0A 
   525)       367.185 1  Rx        0122 -  8    00 00 00 07 04 41 01 0A 
   526)       367.441 1  Rx        0320 -  8    00 00 00 5F 00 00 00 00 
   527)       367.654 1  Rx        0777 -  8    E8 03 E8 03 98 3A 98 3A 
   528)       367.910 1  Rx        0778 -  8    88 13 E8 03 00 00 00 00 
   529)       371.195 1  Rx        0114 -  8    28 28 00 28 5E 80 5E 80 
   530)       372.390 1  Rx        0210 -  8    01 00 00 00 00 00 00 00 
   531)       373.073 1  Rx        0190 -  8    01 00 00 00 00 00 00 00 
   532)       373.499 1  Rx        0150 -  8    00 00 47 6B 2D 00 08 0C 
   533)       373.755 1  Rx        0154 -  8    00 00 02 8F 4D 05 43 0C 
   534)       374.395 1  Rx        0210 -  8    01 00 00 00 00 00 00 00 
   535)       374.694 1  Rx        0160 -  8    00 00 00 00 00 00 00 00 
   536)       374.950 1  Rx        0161 -  8    00 00 00 00 00 00 00 0D 
   537)       375.504 1  Rx        0210 -  8    01 00 00 00 00 00 00 00 
   538)       376.443 1  Rx        0188 -  8    40 00 B6 50 08 61 7A 10 
   539)       376.742 1  Rx        0120 -  8    23 28 5D C0 17 6F 00 0B 
   540)       376.955 1  Rx        0121 -  8    1D 64 28 0A 55 53 05 0B 
   541)       377.211 1  Rx        0122 -  8    00 00 00 07 04 41 01 0B 
   542)       377.424 1  Rx        0777 -  8    E7 03 E8 03 98 3A 98 3A 
   543)       377.680 1  Rx        0778 -  8    86 13 E8 03 00 00 00 00 
   544)       378.235 1  Rx        0102 -  8    18 64 0F 0A 13 8D F2 0D 
   545)       380.112 1  Rx        0116 -  8    2A 34 00 00 00 00 00 05 
   546)       382.246 1  Rx        0210 -  8    01 00 00 00 00 00 00 00 
   547)       383.312 1  Rx        0100 -  8    0E 50 13 88 63 11 00 0F 
   548)       383.568 1  Rx        0150 -  8    00 00 47 6B 2D 00 0C 0D 
   549)       383.782 1  Rx        0154 -  8    00 00 02 8F 4D 05 43 0D 
   550)       384.251 1  Rx        0210 -  8    01 00 00 00 00 00 00 00 
   551)       384.720 1  Rx        0160 -  8    00 00 00 00 00 00 00 00 
   552)       384.976 1  Rx        0161 -  8    00 00 00 00 00 00 00 0E 
   553)       385.360 1  Rx        0210 -  8    01 00 00 00 00 00 00 00 
   554)       386.726 1  Rx        0120 -  8    23 28 5D C0 17 74 00 0C 
   555)       386.982 1  Rx        0121 -  8    1D 6D 28 01 55 53 05 0C 
   556)       387.195 1  Rx        0122 -  8    00 00 00 07 04 41 01 0C 
   557)       387.451 1  Rx        0777 -  8    E7 03 E8 03 97 3A 97 3A 
   558)       387.664 1  Rx        0778 -  8    84 13 E8 03 00 00 00 00 
   559)       392.102 1  Rx        0210 -  8    01 00 00 00 00 00 00 00 
   560)       393.211 1  Rx        0150 -  8    00 00 47 6B 2D 00 0F 0E 
   561)       393.467 1  Rx        0154 -  8    00 00 02 8F 4D 05 43 0E 
   562)       394.107 1  Rx        0210 -  8    01 00 00 00 00 00 00 00 
   563)       394.747 1  Rx        0160 -  8    00 00 00 00 00 00 00 00 
   564)       395.003 1  Rx        0161 -  8    00 00 00 00 00 00 00 0F 
   565)       395.216 1  Rx        0210 -  8    01 00 00 00 00 00 00 00 
   566)       396.709 1  Rx        0120 -  8    23 28 5D C0 17 78 00 0D 
   567)       396.923 1  Rx        0121 -  8    1D 61 27 FB 55 53 05 0D 
   568)       397.179 1  Rx        0122 -  8    00 00 00 07 04 41 01 0D 
   569)       397.435 1  Rx        0102 -  8    18 64 0F 0A 13 8D F2 0E 
   570)       397.648 1  Rx        0777 -  8    E7 03 E8 03 97 3A 97 3A 
   571)       397.861 1  Rx        0778 -  8    82 13 E8 03 00 00 62 00 
   572)       401.915 1  Rx        0210 -  8    01 00 00 00 00 00 00 00 
   573)       403.067 1  Rx        0150 -  8    00 00 47 6B 2D 00 13 0F 
   574)       403.323 1  Rx        0154 -  8    00 00 02 8F 4D 05 43 0F 
   575)       403.963 1  Rx        0210 -  8    01 00 00 00 00 00 00 00 
   576)       404.731 1  Rx        0160 -  8    00 00 00 00 00 00 00 00 
   577)       404.987 1  Rx        0161 -  8    00 00 00 00 00 00 00 00 
   578)       405.200 1  Rx        0210 -  8    01 00 00 00 00 00 00 00 
   579)       406.736 1  Rx        0120 -  8    23 28 5D C0 17 7D 00 0E 
   580)       406.949 1  Rx        0121 -  8    1D 6D 27 F8 55 53 05 0E 
   581)       407.205 1  Rx        0122 -  8    00 00 00 07 04 41 01 0E 
   582)       407.419 1  Rx        0777 -  8    E6 03 E8 03 97 3A 97 3A 
   583)       407.675 1  Rx        0778 -  8    80 13 E8 03 00 00 5C 00 
   584)       412.880 1  Rx        0150 -  8    00 00 47 6B 2D 00 15 00 
   585)       413.136 1  Rx        0154 -  8    00 00 02 8F 4D 05 43 00 
   586)       413.776 1  Rx        0210 -  8    01 00 00 00 00 00 00 00 
   587)       414.715 1  Rx        0160 -  8    00 00 00 00 00 00 00 00 
   588)       414.971 1  Rx        0161 -  8    00 00 00 00 00 00 00 01 
   589)       415.184 1  Rx        0210 -  8    01 00 00 00 00 00 00 00 
   590)       415.611 1  Rx        0210 -  8    01 00 00 00 00 00 00 00 
   591)       416.080 1  Rx        0102 -  8    18 64 0F 0A 13 8D F2 0F 
   592)       416.720 1  Rx        0120 -  8    23 28 5D C0 17 7F 00 0F 
   593)       416.933 1  Rx        0121 -  8    1D 65 27 F8 55 53 05 0F 
   594)       417.189 1  Rx        0122 -  8    00 00 00 07 04 41 01 0F 
   595)       417.403 1  Rx        0777 -  8    E4 03 E8 03 97 3A 96 3A 
   596)       417.659 1  Rx        0778 -  8    7E 13 E8 03 00 00 54 00 
   597)       419.877 1  Rx        0380 -  8    3C 10 0F 04 44 48 5C 00 
   598)       422.736 1  Rx        0150 -  8    00 00 47 6B 2D 00 16 01 
   599)       422.992 1  Rx        0154 -  8    00 00 02 8F 4D 05 43 01 
   600)       423.632 1  Rx        0210 -  8    01 00 00 00 00 00 00 00 
   601)       424.698 1  Rx        0160 -  8    00 00 00 00 00 00 00 00 
   602)       424.954 1  Rx        0161 -  8    00 00 00 00 00 00 00 02 
   603)       425.210 1  Rx        0210 -  8    01 00 00 00 00 00 00 00 
   604)       425.466 1  Rx        0210 -  8    01 00 00 00 00 00 00 00 
   605)       426.789 1  Rx        0120 -  8    23 28 5D C4 17 82 00 00 
   606)       427.045 1  Rx        0121 -  8    1D 62 28 04 55 53 05 00 
   607)       427.258 1  Rx        0122 -  8    00 00 00 07 04 41 01 00 
   608)       427.514 1  Rx        0777 -  8    E2 03 E8 03 96 3A 95 3A 
   609)       427.728 1  Rx        0151 -  8    00 00 10 6C 01 00 00 04 
   610)       427.984 1  Rx        0152 -  8    00 00 0C B3 47 01 00 04 
   611)       428.240 1  Rx        0778 -  8    7D 13 E8 03 00 00 4C 00 
   612)       429.221 1  Rx        0115 -  8    D3 D3 00 00 00 00 00 05 
   613)       432.762 1  Rx        0150 -  8    00 00 47 6B 2D 00 17 02 
   614)       433.018 1  Rx        0154 -  8    00 00 02 8F 4D 05 43 02 
   615)       433.232 1  Rx        0330 -  8    00 80 00 00 00 00 00 00 
   616)       433.658 1  Rx        0210 -  8    01 00 00 00 00 00 00 00 
   617)       434.640 1  Rx        0160 -  8    00 00 00 00 00 00 00 00 
   618)       434.896 1  Rx        0161 -  8    00 00 00 00 00 00 00 03 
   619)       435.152 1  Rx        0210 -  8    01 00 00 00 00 00 00 00 
   620)       435.408 1  Rx        0102 -  8    18 64 0F 0A 13 8D F2 00 
   621)       435.621 1  Rx        0210 -  8    01 00 00 00 00 00 00 00 
   622)       436.730 1  Rx        0120 -  8    23 28 5D C5 17 85 00 01 
   623)       436.986 1  Rx        0121 -  8    1D 60 27 FE 55 53 05 01 
   624)       437.200 1  Rx        0122 -  8    00 00 00 07 04 41 01 01 
   625)       437.456 1  Rx        0777 -  8    E0 03 E8 03 95 3A 95 3A 
   626)       437.712 1  Rx        0778 -  8    7D 13 E8 03 00 00 46 00 
   627)       437.925 1  Rx        052C -  8    03 2C 01 E0 0B C7 06 19 
   628)       438.181 1  Rx        052D -  8    04 81 05 C0 07 FA 00 32 
   629)       442.703 1  Rx        0150 -  8    00 00 47 6B 2D 00 17 03 
   630)       442.959 1  Rx        0154 -  8    00 00 02 8F 4D 05 43 03 
   631)       443.599 1  Rx        0210 -  8    01 00 00 00 00 00 00 00 
   632)       444.666 1  Rx        0160 -  8    00 00 00 00 00 00 00 00 
   633)       444.922 1  Rx        0161 -  8    00 00 00 00 00 00 00 04 
   634)       445.178 1  Rx        0210 -  8    01 00 00 00 00 00 00 00 
   635)       445.477 1  Rx        0210 -  8    01 00 00 00 00 00 00 00 
   636)       446.714 1  Rx        0120 -  8    23 28 5D C7 17 88 00 02 
   637)       446.927 1  Rx        0121 -  8    1D 6D 27 FE 55 53 05 02 
   638)       447.183 1  Rx        0122 -  8    00 00 00 07 04 41 01 02 
   639)       447.397 1  Rx        0777 -  8    DF 03 E8 03 95 3A 94 3A 
   640)       447.653 1  Rx        0778 -  8    7C 13 E8 03 00 00 3E 00 
   641)       447.909 1  Rx        052A -  8    04 1C 06 00 00 00 00 00 
   642)       448.122 1  Rx        052B -  8    9F 91 0F 00 00 00 00 00 
   643)       452.645 1  Rx        0150 -  8    00 00 47 6B 2D 00 18 04 
   644)       452.901 1  Rx        0154 -  8    00 00 02 8F 4D 05 43 04 
   645)       453.541 1  Rx        0210 -  8    01 00 00 00 00 00 00 00 
   646)       454.223 1  Rx        0102 -  8    18 64 0F 0A 13 8D F2 01 
   647)       454.607 1  Rx        0210 -  8    01 00 00 00 00 00 00 00 
   648)       454.863 1  Rx        0160 -  8    00 00 00 00 00 00 00 00 
   649)       455.119 1  Rx        0161 -  8    00 00 00 00 00 00 00 05 
   650)       455.418 1  Rx        0210 -  8    01 00 00 00 00 00 00 00 
   651)       456.783 1  Rx        0120 -  8    23 28 5D C8 17 8B 00 03 
   652)       457.039 1  Rx        0121 -  8    1D 6E 28 04 55 53 05 03 
   653)       457.253 1  Rx        0122 -  8    00 00 00 07 04 41 01 03 
   654)       457.509 1  Rx        0777 -  8    DE 03 E8 03 94 3A 93 3A 
   655)       457.722 1  Rx        0153 -  8    30 00 00 00 09 00 25 06 
   656)       457.978 1  Rx        052E -  8    00 0F 00 08 00 00 AA 41 
   657)       458.234 1  Rx        0778 -  8    7C 13 E8 03 00 00 38 00 
   658)       462.202 1  Rx        0210 -  8    01 00 00 00 00 00 00 00 
   659)       463.354 1  Rx        0150 -  8    00 00 47 6B 2D 00 18 05 
   660)       463.610 1  Rx        0154 -  8    00 00 02 8F 4D 05 43 05 
   661)       464.548 1  Rx        0210 -  8    01 00 00 00 00 00 00 00 
   662)       464.804 1  Rx        0160 -  8    00 00 00 00 00 00 00 00 
   663)       465.060 1  Rx        0161 -  8    00 00 00 00 00 00 00 06 
   664)       465.316 1  Rx        0210 -  8    01 00 00 00 00 00 00 00 
   665)       466.724 1  Rx        0120 -  8    23 28 5D C8 17 8D 00 04 
   666)       466.980 1  Rx        0121 -  8    1D 73 27 F8 55 53 05 04 
   667)       467.194 1  Rx        0122 -  8    00 00 00 07 04 41 01 04 
   668)       467.450 1  Rx        0320 -  8    00 00 00 5F 00 00 00 00 
   669)       467.663 1  Rx        0777 -  8    DF 03 E8 03 94 3A 93 3A 
   670)       467.919 1  Rx        0778 -  8    7C 13 E8 03 00 00 30 00 
   671)       468.260 1  Rx        0114 -  8    28 28 00 28 5E 80 5E 81 
   672)       472.100 1  Rx        0210 -  8    01 00 00 00 00 00 00 00 
   673)       472.996 1  Rx        0190 -  8    01 00 00 00 00 00 00 00 
   674)       473.252 1  Rx        0102 -  8    18 64 0F 0A 13 8D F2 02 
   675)       473.466 1  Rx        0150 -  8    00 00 47 6B 2D 00 18 06 
   676)       473.722 1  Rx        0154 -  8    00 00 02 8F 4D 05 43 06 
   677)       474.490 1  Rx        0210 -  8    01 00 00 00 00 00 00 00 
   678)       474.703 1  Rx        0160 -  8    00 00 00 00 00 00 00 00 
   679)       474.959 1  Rx        0161 -  8    00 00 00 00 00 00 00 07 
   680)       475.258 1  Rx        0210 -  8    01 00 00 00 00 00 00 00 
   681)       476.324 1  Rx        0188 -  8    40 00 BC 50 08 61 7A 10 
   682)       476.708 1  Rx        0120 -  8    23 28 5D C8 17 8F 00 05 
   683)       476.964 1  Rx        0121 -  8    1D 64 27 FE 55 53 05 05 
   684)       477.178 1  Rx        0122 -  8    00 00 00 07 04 41 01 05 
   685)       477.434 1  Rx        0777 -  8    E0 03 E8 03 94 3A 93 3A 
   686)       477.647 1  Rx        0778 -  8    7C 13 E8 03 00 00 28 00 
   687)       481.146 1  Rx        0112 -  8    16 10 1C 30 10 0C 00 03 
   688)       481.402 1  Rx        0113 -  8    01 45 03 44 00 0D 00 03 
   689)       481.658 1  Rx        0116 -  8    2A 34 00 00 00 00 00 06 
   690)       482.041 1  Rx        0210 -  8    01 00 00 00 00 00 00 00 
   691)       483.108 1  Rx        0100 -  8    0E 50 13 88 63 11 00 00 
   692)       483.364 1  Rx        0150 -  8    00 00 47 6B 2D 00 18 07 
   693)       483.577 1  Rx        0154 -  8    00 00 02 8F 4D 05 43 07 
   694)       484.388 1  Rx        0210 -  8    01 00 00 00 00 00 00 00 
   695)       484.644 1  Rx        0160 -  8    00 00 00 00 00 00 00 00 
   696)       484.900 1  Rx        0161 -  8    00 00 00 00 00 00 00 08 
   697)       485.199 1  Rx        0210 -  8    01 00 00 00 00 00 00 00 
   698)       486.735 1  Rx        0120 -  8    23 28 5D C7 17 8F 00 06 
   699)       486.948 1  Rx        0121 -  8    1D 64 28 04 55 53 05 06 
   700)       487.204 1  Rx        0122 -  8    00 00 00 07 04 41 01 06 
   701)       487.417 1  Rx        0777 -  8    E2 03 E8 03 94 3A 94 3A 
   702)       487.673 1  Rx        0778 -  8    7C 13 E8 03 00 00 22 00 
   703)       491.940 1  Rx        0210 -  8    01 00 00 00 00 00 00 00 
   704)       493.049 1  Rx        0102 -  8    18 64 0F 0A 13 8D F2 03 
   705)       493.263 1  Rx        0150 -  8    00 00 47 6B 2D 00 18 08 
   706)       493.519 1  Rx        0154 -  8    00 00 02 8F 4D 05 43 08 
   707)       494.329 1  Rx        0210 -  8    01 00 00 00 00 00 00 00 
   708)       494.628 1  Rx        0160 -  8    00 00 00 00 00 00 00 00 
   709)       494.884 1  Rx        0161 -  8    00 00 00 00 00 00 00 09 
   710)       495.140 1  Rx        0210 -  8    01 00 00 00 00 00 00 00 
   711)       496.719 1  Rx        0120 -  8    23 28 5D C6 17 8F 00 07 
   712)       496.975 1  Rx        0121 -  8    1D 65 28 07 55 53 05 07 
   713)       497.188 1  Rx        0122 -  8    00 00 00 07 04 41 01 07 
   714)       497.444 1  Rx        0777 -  8    E3 03 E8 03 95 3A 94 3A 
   715)       497.657 1  Rx        0778 -  8    7C 13 E8 03 00 00 1A 00 
   716)       501.881 1  Rx        0210 -  8    01 00 00 00 00 00 00 00 
   717)       503.076 1  Rx        0150 -  8    00 00 47 6B 2D 00 18 09 
   718)       503.289 1  Rx        0154 -  8    00 00 02 A3 4D 05 43 09 
   719)       504.270 1  Rx        0210 -  8    01 00 00 00 00 00 00 00 
   720)       504.612 1  Rx        0160 -  8    00 00 00 00 00 00 00 00 
   721)       504.868 1  Rx        0161 -  8    00 00 00 00 00 00 00 0A 
   722)       505.124 1  Rx        0210 -  8    01 00 00 00 00 00 00 00 
   723)       506.702 1  Rx        0120 -  8    23 28 5D C4 17 8F 00 08 
   724)       506.958 1  Rx        0121 -  8    1D 73 28 0A 55 53 05 08 
   725)       507.172 1  Rx        0122 -  8    00 00 00 07 04 41 01 08 
   726)       507.428 1  Rx        0777 -  8    E4 03 E8 03 95 3A 95 3A 
   727)       507.641 1  Rx        0778 -  8    7C 13 E8 03 00 00 14 00 
   728)       511.140 1  Rx        0102 -  8    18 64 0F 0A 13 8D F2 04 
   729)       512.974 1  Rx        0150 -  8    00 00 47 6B 2D 00 18 0A 
   730)       513.188 1  Rx        0154 -  8    00 00 02 8F 4D 05 43 0A 
   731)       514.169 1  Rx        0210 -  8    01 00 00 00 00 00 00 00 
   732)       514.596 1  Rx        0160 -  8    00 00 00 00 00 00 00 00 
   733)       514.852 1  Rx        0161 -  8    00 00 00 00 00 00 00 0B 
   734)       515.108 1  Rx        0210 -  8    01 00 00 00 00 00 00 00 
   735)       516.004 1  Rx        0210 -  8    01 00 00 00 00 00 00 00 
   736)       516.729 1  Rx        0120 -  8    23 28 5D C0 17 90 00 09 
   737)       516.985 1  Rx        0121 -  8    1D 6D 28 01 55 53 05 09 
   738)       517.198 1  Rx        0122 -  8    00 00 00 07 04 41 01 09 
   739)       517.454 1  Rx        0777 -  8    E6 03 E8 03 96 3A 96 3A 
   740)       517.668 1  Rx        0778 -  8    7C 13 E8 03 00 00 0C 00 
   741)       519.886 1  Rx        0380 -  8    3D 10 10 05 44 48 5C 01 
   742)       522.830 1  Rx        0150 -  8    00 00 47 6B 2D 00 18 0B 
   743)       523.086 1  Rx        0154 -  8    00 00 02 A3 4D 05 43 0B 
   744)       524.025 1  Rx        0210 -  8    01 00 00 00 00 00 00 00 
   745)       524.622 1  Rx        0160 -  8    00 00 00 00 00 00 00 00 
   746)       524.835 1  Rx        0161 -  8    00 00 00 00 00 00 00 0C 
   747)       525.091 1  Rx        0210 -  8    01 00 00 00 00 00 00 00 
   748)       525.902 1  Rx        0210 -  8    01 00 00 00 00 00 00 00 
   749)       526.798 1  Rx        0120 -  8    23 28 5D C0 17 90 00 0A 
   750)       527.011 1  Rx        0121 -  8    1D 73 27 F8 55 53 05 0A 
   751)       527.267 1  Rx        0115 -  8    D3 D3 00 00 00 00 00 06 
   752)       527.481 1  Rx        0122 -  8    00 00 00 07 04 41 01 0A 
   753)       527.737 1  Rx        0777 -  8    E7 03 E8 03 96 3A 96 3A 
   754)       527.950 1  Rx        0151 -  8    00 00 10 6C 01 00 00 05 
   755)       528.206 1  Rx        0152 -  8    00 00 0C B3 47 01 00 05 
   756)       528.462 1  Rx        0778 -  8    7C 13 E8 03 00 00 04 00 
   757)       530.126 1  Rx        0102 -  8    18 64 0F 0A 13 8D F2 05 
   758)       532.686 1  Rx        0150 -  8    00 00 47 6B 2D 00 18 0C 
   759)       532.942 1  Rx        0154 -  8    00 00 02 8F 4D 05 43 0C 
   760)       533.881 1  Rx        0210 -  8    01 00 00 00 00 00 00 00 
   761)       534.606 1  Rx        0160 -  8    00 00 00 00 00 00 00 00 
   762)       534.862 1  Rx        0161 -  8    00 00 00 00 00 00 00 0D 
   763)       535.075 1  Rx        0210 -  8    01 00 00 00 00 00 00 00 
   764)       535.715 1  Rx        0210 -  8    01 00 00 00 00 00 00 00 
   765)       536.697 1  Rx        0120 -  8    23 28 5D C0 17 90 00 0B 
   766)       536.953 1  Rx        0121 -  8    1D 70 27 F5 55 53 05 0B 
   767)       537.209 1  Rx        0122 -  8    00 00 00 07 04 41 01 0B 
   768)       537.422 1  Rx        0777 -  8    E8 03 E8 03 96 3A 96 3A 
   769)       537.635 1  Rx        052C -  8    03 1D 01 EF 0B C0 06 28 
   770)       537.891 1  Rx        052D -  8    04 62 05 EF 07 E1 00 32 
   771)       538.147 1  Rx        0778 -  8    7C 13 E8 03 00 00 00 00 
   772)       542.499 1  Rx        0210 -  8    01 00 00 00 00 00 00 00 
   773)       543.651 1  Rx        0150 -  8    00 00 47 6B 2D 00 18 0D 
   774)       543.865 1  Rx        0154 -  8    00 00 02 A3 4D 05 43 0D 
   775)       544.547 1  Rx        0210 -  8    01 00 00 00 00 00 00 00 
   776)       544.803 1  Rx        0160 -  8    00 00 00 00 00 00 00 00 
   777)       545.017 1  Rx        0161 -  8    00 00 00 00 00 00 00 0E 
   778)       545.614 1  Rx        0210 -  8    01 00 00 00 00 00 00 00 
   779)       546.723 1  Rx        0120 -  8    23 28 5D C0 17 90 00 0C 
   780)       546.979 1  Rx        0121 -  8    1D 63 27 F8 55 53 05 0C 
   781)       547.192 1  Rx        0122 -  8    00 00 00 07 04 41 01 0C 
   782)       547.448 1  Rx        0777 -  8    E9 03 E8 03 97 3A 97 3A 
   783)       547.662 1  Rx        0778 -  8    7C 13 E8 03 00 00 00 00 
   784)       548.600 1  Rx        052A -  8    04 1C 06 00 00 00 00 00 
   785)       548.856 1  Rx        052B -  8    9F 91 0F 00 00 00 00 00 
   786)       549.112 1  Rx        0102 -  8    18 64 0F 0A 13 8D F2 06 
   787)       552.398 1  Rx        0210 -  8    01 00 00 00 00 00 00 00 
   788)       553.507 1  Rx        0150 -  8    00 00 47 6B 2D 00 18 0E 
   789)       553.720 1  Rx        0154 -  8    00 00 02 A3 4D 05 43 0E 
   790)       554.403 1  Rx        0210 -  8    01 00 00 00 00 00 00 00 
   791)       554.659 1  Rx        0160 -  8    00 00 00 00 00 00 00 00 
   792)       554.872 1  Rx        0161 -  8    00 00 00 00 00 00 00 0F 
   793)       555.470 1  Rx        0210 -  8    01 00 00 00 00 00 00 00 
   794)       556.750 1  Rx        0120 -  8    23 28 5D C0 17 90 00 0D 
   795)       557.006 1  Rx        0121 -  8    1D 63 27 FB 55 53 05 0D 
   796)       557.219 1  Rx        0122 -  8    00 00 00 07 04 41 01 0D 
   797)       557.475 1  Rx        0777 -  8    E9 03 E8 03 97 3A 97 3A 
   798)       557.731 1  Rx        0778 -  8    7C 13 E8 03 00 00 00 00 
   799)       558.456 1  Rx        052E -  8    00 0F 00 08 00 00 AA 41 
   800)       558.670 1  Rx        0153 -  8    30 00 00 00 09 00 25 10 
   801)       562.211 1  Rx        0210 -  8    01 00 00 00 00 00 00 00 
   802)       563.363 1  Rx        0150 -  8    00 00 47 6B 2D 00 18 0F 
   803)       563.576 1  Rx        0154 -  8    00 00 02 8F 4D 05 43 0F 
   804)       564.259 1  Rx        0210 -  8    01 00 00 00 00 00 00 00 
   805)       564.558 1  Rx        0160 -  8    00 00 00 00 00 00 00 00 
   806)       564.814 1  Rx        0161 -  8    00 00 00 00 00 00 00 00 
   807)       565.198 1  Rx        0114 -  8    28 28 00 28 5E 80 5E 82 
   808)       565.454 1  Rx        0210 -  8    01 00 00 00 00 00 00 00 
   809)       566.734 1  Rx        0120 -  8    23 28 5D C0 17 90 00 0E 
   810)       566.947 1  Rx        0121 -  8    1D 65 28 04 55 53 05 0E 
   811)       567.203 1  Rx        0122 -  8    00 00 00 07 04 41 01 0E 
   812)       567.416 1  Rx        0320 -  8    00 00 00 5F 00 00 00 00 
   813)       567.672 1  Rx        0777 -  8    E9 03 E8 03 97 3A 97 3A 
   814)       567.885 1  Rx        0778 -  8    7C 13 E8 03 00 00 00 00 
   815)       568.141 1  Rx        0102 -  8    18 64 0F 0A 13 8D F2 07 
   816)       572.067 1  Rx        0210 -  8    01 00 00 00 00 00 00 00 
   817)       573.133 1  Rx        0190 -  8    01 00 00 00 00 00 00 00 
   818)       573.389 1  Rx        0150 -  8    00 00 47 6B 2D 00 18 00 
   819)       573.603 1  Rx        0154 -  8    00 00 02 8F 4D 05 43 00 
   820)       574.072 1  Rx        0210 -  8    01 00 00 00 00 00 00 00 
   821)       574.541 1  Rx        0160 -  8    00 00 00 00 00 00 00 00 
   822)       574.797 1  Rx        0161 -  8    00 00 00 00 00 00 00 01 
   823)       575.181 1  Rx        0210 -  8    01 00 00 00 00 00 00 00 
   824)       576.419 1  Rx        0188 -  8    40 00 B5 50 08 61 7A 10 
   825)       576.760 1  Rx        0120 -  8    23 28 5D C0 17 90 00 0F 
   826)       576.973 1  Rx        0121 -  8    1D 6E 27 F5 55 53 05 0F 
   827)       577.229 1  Rx        0122 -  8    00 00 00 07 04 41 01 0F 
   828)       577.443 1  Rx        0777 -  8    EA 03 E8 03 97 3A 98 3A 
   829)       577.699 1  Rx        0778 -  8    7C 13 E8 03 00 00 00 00 
   830)       581.923 1  Rx        0210 -  8    01 00 00 00 00 00 00 00 
   831)       582.861 1  Rx        0116 -  8    2A 34 00 00 00 00 00 07 
   832)       583.075 1  Rx        0150 -  8    00 00 47 6B 2D 00 18 01 
   833)       583.331 1  Rx        0100 -  8    0E 50 13 88 63 11 00 01 
   834)       583.544 1  Rx        0154 -  8    00 00 02 8F 4D 05 43 01 
   835)       583.928 1  Rx        0210 -  8    01 00 00 00 00 00 00 00 
   836)       584.525 1  Rx        0160 -  8    00 00 00 00 00 00 00 00 
   837)       584.781 1  Rx        0161 -  8    00 00 00 00 00 00 00 02 
   838)       585.037 1  Rx        0210 -  8    01 00 00 00 00 00 00 00 
   839)       586.744 1  Rx        0120 -  8    23 28 5D C0 17 90 00 00 
   840)       587.000 1  Rx        0121 -  8    1D 73 28 01 55 53 05 00 
   841)       587.213 1  Rx        0122 -  8    00 00 00 07 04 41 01 00 
   842)       587.469 1  Rx        0102 -  8    18 64 0F 0A 13 8D F2 08 
   843)       587.683 1  Rx        0777 -  8    EA 03 E8 03 97 3A 98 3A 
   844)       587.939 1  Rx        0778 -  8    7C 13 E8 03 00 00 00 00 
   845)       592.888 1  Rx        0150 -  8    00 00 47 6B 2D 00 18 02 
   846)       593.101 1  Rx        0154 -  8    00 00 02 A3 4D 05 43 02 
   847)       593.784 1  Rx        0210 -  8    01 00 00 00 00 00 00 00 
   848)       594.552 1  Rx        0160 -  8    00 00 00 00 00 00 00 00 
   849)       594.765 1  Rx        0161 -  8    00 00 00 00 00 00 00 03 
   850)       595.021 1  Rx        0210 -  8    01 00 00 00 00 00 00 00 
   851)       595.618 1  Rx        0210 -  8    01 00 00 00 00 00 00 00 
   852)       596.728 1  Rx        0120 -  8    23 28 5D C0 17 90 00 01 
   853)       596.941 1  Rx        0121 -  8    1D 74 27 FE 55 53 05 01 
   854)       597.197 1  Rx        0122 -  8    00 00 00 07 04 41 01 01 
   855)       597.410 1  Rx        0777 -  8    EA 03 E8 03 97 3A 98 3A 
   856)       597.666 1  Rx        0778 -  8    7C 13 E8 03 00 00 00 00 
   857)       602.701 1  Rx        0150 -  8    00 00 47 6B 2D 00 18 03 
   858)       602.957 1  Rx        0154 -  8    00 00 02 A3 4D 05 43 03 
   859)       603.597 1  Rx        0210 -  8    01 00 00 00 00 00 00 00 
   860)       604.536 1  Rx        0160 -  8    00 00 00 00 00 00 00 00 
   861)       604.749 1  Rx        0161 -  8    00 00 00 00 00 00 00 04 
   862)       605.005 1  Rx        0210 -  8    01 00 00 00 00 00 00 00 
   863)       605.432 1  Rx        0210 -  8    01 00 00 00 00 00 00 00 
   864)       606.157 1  Rx        0102 -  8    18 64 0F 0A 13 8D F2 09 
   865)       606.754 1  Rx        0120 -  8    23 28 5D C0 17 90 00 02 
   866)       606.968 1  Rx        0121 -  8    1D 63 28 04 55 53 05 02 
   867)       607.224 1  Rx        0122 -  8    00 00 00 07 04 41 01 02 
   868)       607.437 1  Rx        0777 -  8    EA 03 E8 03 97 3A 98 3A 
   869)       607.693 1  Rx        0778 -  8    7C 13 E8 03 00 00 00 00 
   870)       612.173 1  Rx        0210 -  8    01 00 00 00 00 00 00 00 
   871)       613.325 1  Rx        0150 -  8    00 00 47 6B 2D 00 18 04 
   872)       613.538 1  Rx        0154 -  8    00 00 02 A3 4D 05 43 04 
   873)       614.519 1  Rx        0160 -  8    00 00 00 00 00 00 00 00 
   874)       614.733 1  Rx        0161 -  8    00 00 00 00 00 00 00 05 
   875)       614.989 1  Rx        0210 -  8    01 00 00 00 00 00 00 00 
   876)       615.287 1  Rx        0210 -  8    01 00 00 00 00 00 00 00 
   877)       616.738 1  Rx        0120 -  8    23 28 5D C0 17 90 00 03 
   878)       616.951 1  Rx        0121 -  8    1D 64 28 07 55 53 05 03 
   879)       617.207 1  Rx        0122 -  8    00 00 00 07 04 41 01 03 
   880)       617.421 1  Rx        0777 -  8    EA 03 E8 03 97 3A 98 3A 
   881)       617.677 1  Rx        0778 -  8    7C 13 E8 03 00 00 00 00 
   882)       619.938 1  Rx        0380 -  8    3E 10 17 06 28 48 5C 02 
   883)       622.029 1  Rx        0210 -  8    01 00 00 00 00 00 00 00 
   884)       623.138 1  Rx        0150 -  8    00 00 47 6B 2D 00 18 05 
   885)       623.394 1  Rx        0154 -  8    00 00 02 A3 4D 05 43 05 
   886)       624.333 1  Rx        0210 -  8    01 00 00 00 00 00 00 00 
   887)       624.589 1  Rx        0160 -  8    00 00 00 00 00 00 00 00 
   888)       624.845 1  Rx        0161 -  8    00 00 00 00 00 00 00 06 
   889)       625.101 1  Rx        0210 -  8    01 00 00 00 00 00 00 00 
   890)       625.357 1  Rx        0102 -  8    18 64 0F 0A 13 8D F2 0A 
   891)       625.570 1  Rx        0115 -  8    D3 D3 00 00 00 00 00 07 
   892)       626.807 1  Rx        0120 -  8    23 28 5D C0 17 90 00 04 
   893)       627.021 1  Rx        0121 -  8    1D 6C 27 F2 55 53 05 04 
   894)       627.277 1  Rx        0122 -  8    00 00 00 07 04 41 01 04 
   895)       627.490 1  Rx        0777 -  8    EA 03 E8 03 97 3A 98 3A 
   896)       627.746 1  Rx        0778 -  8    7C 13 E8 03 00 00 00 00 
   897)       628.087 1  Rx        0151 -  8    00 00 10 6C 01 00 00 06 
   898)       628.301 1  Rx        0152 -  8    00 00 0C B3 47 01 00 06 
   899)       629.239 1  Rx        0105 -  8    00 00 00 00 00 00 00 0B 
   900)       633.122 1  Rx        0150 -  8    00 00 47 6B 2D 00 18 06 
   901)       633.378 1  Rx        0154 -  8    00 00 02 A3 4D 05 43 06 
   902)       634.359 1  Rx        0210 -  8    01 00 00 00 00 00 00 00 
   903)       634.615 1  Rx        0160 -  8    00 00 00 00 00 00 00 00 
   904)       634.828 1  Rx        0161 -  8    00 00 00 00 00 00 00 07 
   905)       635.127 1  Rx        0210 -  8    01 00 00 00 00 00 00 00 
   906)       636.194 1  Rx        0210 -  8    01 00 00 00 00 00 00 00 
   907)       636.748 1  Rx        0120 -  8    23 28 5D C0 17 90 00 05 
   908)       636.962 1  Rx        0121 -  8    1D 70 27 F5 55 53 05 05 
   909)       637.218 1  Rx        0122 -  8    00 00 00 07 04 41 01 05 
   910)       637.431 1  Rx        0777 -  8    EA 03 E8 03 97 3A 98 3A 
   911)       637.687 1  Rx        0778 -  8    7C 13 E8 03 00 00 00 00 
   912)       638.071 1  Rx        052C -  8    03 18 01 DB 0B D6 06 34 
   913)       638.327 1  Rx        052D -  8    04 69 05 D7 07 EB 00 32 
   914)       642.978 1  Rx        0150 -  8    00 00 47 6B 2D 00 18 07 
   915)       643.234 1  Rx        0154 -  8    00 00 02 A3 4D 05 43 07 
   916)       644.130 1  Rx        0102 -  8    18 64 0F 0A 13 8D F2 0B 
   917)       644.386 1  Rx        0210 -  8    01 00 00 00 00 00 00 00 
   918)       644.642 1  Rx        0160 -  8    00 00 00 00 00 00 00 00 
   919)       644.855 1  Rx        0161 -  8    00 00 00 00 00 00 00 08 
   920)       645.111 1  Rx        0210 -  8    01 00 00 00 00 00 00 00 
   921)       646.050 1  Rx        0210 -  8    01 00 00 00 00 00 00 00 
   922)       646.732 1  Rx        0120 -  8    23 28 5D C0 17 90 00 06 
   923)       646.988 1  Rx        0121 -  8    1D 6A 28 11 55 53 05 06 
   924)       647.202 1  Rx        0122 -  8    00 00 00 07 04 41 01 06 
   925)       647.458 1  Rx        0777 -  8    EA 03 E8 03 97 3A 98 3A 
   926)       647.671 1  Rx        0778 -  8    7C 13 E8 03 00 00 00 00 
   927)       647.927 1  Rx        052A -  8    04 1C 06 00 00 00 00 00 
   928)       648.183 1  Rx        052B -  8    9F 91 0F 00 00 00 00 00 
   929)       652.876 1  Rx        0150 -  8    00 00 47 6B 2D 00 18 08 
   930)       653.089 1  Rx        0154 -  8    00 00 02 8F 4D 05 43 08 
   931)       654.071 1  Rx        0210 -  8    01 00 00 00 00 00 00 00 
   932)       654.455 1  Rx        0160 -  8    00 00 00 00 00 00 00 00 
   933)       654.711 1  Rx        0161 -  8    00 00 00 00 00 00 00 09 
   934)       654.967 1  Rx        0210 -  8    01 00 00 00 00 00 00 00 
   935)       655.905 1  Rx        0210 -  8    01 00 00 00 00 00 00 00 
   936)       656.801 1  Rx        0120 -  8    23 28 5D C0 17 90 00 07 
   937)       657.015 1  Rx        0121 -  8    1D 65 27 FE 55 53 05 07 
   938)       657.271 1  Rx        0122 -  8    00 00 00 07 04 41 01 07 
   939)       657.484 1  Rx        0777 -  8    EA 03 E8 03 97 3A 98 3A 
   940)       657.740 1  Rx        0778 -  8    7C 13 E8 03 00 00 00 00 
   941)       657.996 1  Rx        0153 -  8    30 00 00 00 09 00 25 0A 
   942)       658.252 1  Rx        052E -  8    00 0F 00 08 00 00 AA 41 
   943)       662.689 1  Rx        0150 -  8    00 00 47 6B 2D 00 18 09 
   944)       662.945 1  Rx        0114 -  8    28 28 00 28 5E 80 5E 83 
   945)       663.201 1  Rx        0154 -  8    00 00 02 8F 4D 05 43 09 
   946)       663.415 1  Rx        0102 -  8    18 64 0F 0A 13 8D F2 0C 
   947)       663.927 1  Rx        0210 -  8    01 00 00 00 00 00 00 00 
   948)       664.481 1  Rx        0160 -  8    00 00 00 00 00 00 00 00 
   949)       664.695 1  Rx        0161 -  8    00 00 00 00 00 00 00 0A 
   950)       664.951 1  Rx        0210 -  8    01 00 00 00 00 00 00 00 
   951)       665.761 1  Rx        0210 -  8    01 00 00 00 00 00 00 00 
   952)       666.743 1  Rx        0120 -  8    23 28 5D C0 17 90 00 08 
   953)       666.999 1  Rx        0121 -  8    1D 65 27 FE 55 53 05 08 
   954)       667.212 1  Rx        0122 -  8    00 00 00 07 04 41 01 08 
   955)       667.468 1  Rx        0320 -  8    00 00 00 5F 00 00 00 00 
   956)       667.681 1  Rx        0777 -  8    EA 03 E8 03 97 3A 98 3A 
   957)       667.937 1  Rx        0778 -  8    7C 13 E8 03 00 00 00 00 
   958)       672.503 1  Rx        0210 -  8    01 00 00 00 00 00 00 00 
   959)       673.057 1  Rx        0190 -  8    01 00 00 00 00 00 00 00 
   960)       673.612 1  Rx        0150 -  8    00 00 47 6B 2D 00 18 0A 
   961)       673.868 1  Rx        0154 -  8    00 00 02 8F 4D 05 43 0A 
   962)       674.465 1  Rx        0160 -  8    00 00 00 00 00 00 00 00 
   963)       674.678 1  Rx        0161 -  8    00 00 00 00 00 00 00 0B 
   964)       674.934 1  Rx        0210 -  8    01 00 00 00 00 00 00 00 
   965)       675.617 1  Rx        0210 -  8    01 00 00 00 00 00 00 00 
   966)       676.385 1  Rx        0188 -  8    40 00 BC 50 08 61 7A 10 
   967)       676.726 1  Rx        0120 -  8    23 28 5D C0 17 90 00 09 
   968)       676.940 1  Rx        0121 -  8    1D 6D 28 07 55 53 05 09 
   969)       677.196 1  Rx        0122 -  8    00 00 00 07 04 41 01 09 
   970)       677.409 1  Rx        0777 -  8    EA 03 E8 03 97 3A 98 3A 
   971)       677.665 1  Rx        0778 -  8    7C 13 E8 03 00 00 00 00 
   972)       682.358 1  Rx        0210 -  8    01 00 00 00 00 00 00 00 
   973)       682.785 1  Rx        0102 -  8    18 64 0F 0A 13 8D F2 0D 
   974)       683.084 1  Rx        0100 -  8    0E 50 13 88 63 11 00 02 
   975)       683.340 1  Rx        0112 -  8    16 10 1C 30 10 0C 00 04 
   976)       683.553 1  Rx        0113 -  8    01 45 03 44 00 0D 00 04 
   977)       683.809 1  Rx        0116 -  8    2A 34 00 00 00 00 00 08 
   978)       684.065 1  Rx        0150 -  8    00 00 47 6B 2D 00 18 0B 
   979)       684.278 1  Rx        0154 -  8    00 00 02 8F 4D 05 43 0B 
   980)       684.534 1  Rx        0160 -  8    00 00 00 00 00 00 00 00 
   981)       684.790 1  Rx        0161 -  8    00 00 00 00 00 00 00 0C 
   982)       685.046 1  Rx        0210 -  8    01 00 00 00 00 00 00 00 
   983)       685.473 1  Rx        0210 -  8    01 00 00 00 00 00 00 00 
   984)       686.710 1  Rx        0120 -  8    23 28 5D C0 17 90 00 0A 
   985)       686.966 1  Rx        0121 -  8    1D 73 27 FE 55 53 05 0A 
   986)       687.180 1  Rx        0122 -  8    00 00 00 07 04 41 01 0A 
   987)       687.436 1  Rx        0777 -  8    EA 03 E8 03 97 3A 98 3A 
   988)       687.692 1  Rx        0778 -  8    7C 13 E8 03 00 00 00 00 
   989)       692.172 1  Rx        0210 -  8    01 00 00 00 00 00 00 00 
   990)       693.324 1  Rx        0150 -  8    00 00 47 6B 2D 00 18 0C 
   991)       693.537 1  Rx        0154 -  8    00 00 02 8F 4D 05 43 0C 
   992)       694.220 1  Rx        0210 -  8    01 00 00 00 00 00 00 00 
   993)       694.476 1  Rx        0160 -  8    00 00 00 00 00 00 00 00 
   994)       694.689 1  Rx        0161 -  8    00 00 00 00 00 00 00 0D 
   995)       695.286 1  Rx        0210 -  8    01 00 00 00 00 00 00 00 
   996)       696.822 1  Rx        0120 -  8    23 28 5D C0 17 90 00 0B 
   997)       697.035 1  Rx        0121 -  8    1D 6D 27 F8 55 53 05 0B 
   998)       697.291 1  Rx        0122 -  8    00 00 00 07 04 41 01 0B 
   999)       697.505 1  Rx        0777 -  8    EA 03 E8 03 97 3A 98 3A 
  1000)       697.761 1  Rx        0778 -  8    7C 13 E8 03 00 00 00 00 
  1001)       701.174 1  Rx        0102 -  8    18 64 0F 0A 13 8D F2 0E 
  1002)       702.027 1  Rx        0210 -  8    01 00 00 00 00 00 00 00 
  1003)       703.137 1  Rx        0150 -  8    00 00 47 6B 2D 00 18 0D 
  1004)       703.393 1  Rx        0154 -  8    00 00 02 8F 4D 05 43 0D 
  1005)       704.033 1  Rx        0210 -  8    01 00 00 00 00 00 00 00 
  1006)       704.417 1  Rx        0160 -  8    00 00 00 00 00 00 00 00 
  1007)       704.673 1  Rx        0161 -  8    00 00 00 00 00 00 00 0E 
  1008)       705.142 1  Rx        0210 -  8    01 00 00 00 00 00 00 00 
  1009)       706.721 1  Rx        0120 -  8    23 28 5D C0 17 90 00 0C 
  1010)       706.934 1  Rx        0121 -  8    1D 63 28 04 55 53 05 0C 
  1011)       707.190 1  Rx        0122 -  8    00 00 00 07 04 41 01 0C 
  1012)       707.403 1  Rx        0777 -  8    E9 03 E8 03 97 3A 98 3A 
  1013)       707.659 1  Rx        0778 -  8    7C 13 E8 03 00 00 00 00 
  1014)       712.993 1  Rx        0150 -  8    00 00 47 6B 2D 00 18 0E 
  1015)       713.206 1  Rx        0154 -  8    00 00 02 8F 4D 05 43 0E 
  1016)       713.889 1  Rx        0210 -  8    01 00 00 00 00 00 00 00 
  1017)       714.401 1  Rx        0160 -  8    00 00 00 00 00 00 00 00 
  1018)       714.657 1  Rx        0161 -  8    00 00 00 00 00 00 00 0F 
  1019)       714.955 1  Rx        0210 -  8    01 00 00 00 00 00 00 00 
  1020)       715.723 1  Rx        0210 -  8    01 00 00 00 00 00 00 00 
  1021)       716.777 1  Rx        0120 -  8    23 28 5D C0 17 90 00 0D 
  1022)       716.990 1  Rx        0121 -  8    1D 62 28 0D 55 53 05 0D 
  1023)       717.246 1  Rx        0122 -  8    00 00 00 07 04 41 01 0D 
  1024)       717.460 1  Rx        0777 -  8    E9 03 E8 03 97 3A 98 3A 
  1025)       717.716 1  Rx        0778 -  8    7C 13 E8 03 00 00 00 00 
  1026)       719.892 1  Rx        0380 -  8    3F 10 11 07 45 48 5C 03 
  1027)       720.148 1  Rx        0102 -  8    18 64 0F 0A 13 8D F2 0F 
  1028)       722.878 1  Rx        0150 -  8    00 00 47 6B 2D 00 18 0F 
  1029)       723.092 1  Rx        0154 -  8    00 00 02 8F 4D 05 43 0F 
  1030)       723.348 1  Rx        0115 -  8    D3 D3 00 00 00 00 00 08 
  1031)       723.774 1  Rx        0210 -  8    01 00 00 00 00 00 00 00 
  1032)       724.414 1  Rx        0160 -  8    00 00 00 00 00 00 00 00 
  1033)       724.670 1  Rx        0161 -  8    00 00 00 00 00 00 00 00 
  1034)       724.926 1  Rx        0210 -  8    01 00 00 00 00 00 00 00 
  1035)       725.609 1  Rx        0210 -  8    01 00 00 00 00 00 00 00 
  1036)       726.804 1  Rx        0120 -  8    23 28 5D C0 17 90 00 0E 
  1037)       727.060 1  Rx        0121 -  8    1D 61 28 07 55 53 05 0E 
  1038)       727.273 1  Rx        0122 -  8    00 00 00 07 04 41 01 0E 
  1039)       727.529 1  Rx        0777 -  8    E9 03 E8 03 97 3A 97 3A 
  1040)       727.742 1  Rx        0778 -  8    7C 13 E8 03 00 00 00 00 
  1041)       727.998 1  Rx        0151 -  8    00 00 10 6C 01 00 00 07 
  1042)       728.254 1  Rx        0152 -  8    00 00 0C B3 47 01 00 07 
  1043)       732.734 1  Rx        0150 -  8    00 00 47 6B 2D 00 18 00 
  1044)       732.948 1  Rx        0154 -  8    00 00 02 8F 4D 05 43 00 
  1045)       733.630 1  Rx        0210 -  8    01 00 00 00 00 00 00 00 
  1046)       734.441 1  Rx        0160 -  8    00 00 00 00 00 00 00 00 
  1047)       734.654 1  Rx        0161 -  8    00 00 00 00 00 00 00 01 
  1048)       734.910 1  Rx        0210 -  8    01 00 00 00 00 00 00 00 
  1049)       735.465 1  Rx        0210 -  8    01 00 00 00 00 00 00 00 
  1050)       736.745 1  Rx        0120 -  8    23 28 5D C0 17 90 00 0F 
  1051)       736.958 1  Rx        0121 -  8    1D 66 27 F8 55 53 05 0F 
  1052)       737.214 1  Rx        0122 -  8    00 00 00 07 04 41 01 0F 
  1053)       737.428 1  Rx        0777 -  8    E9 03 E8 03 97 3A 97 3A 
  1054)       737.684 1  Rx        0778 -  8    7C 13 E8 03 00 00 00 00 
  1055)       738.451 1  Rx        052C -  8    03 14 01 D4 0B C2 06 12 
  1056)       738.707 1  Rx        052D -  8    04 5A 05 B6 07 E1 00 32 
  1057)       739.219 1  Rx        0102 -  8    18 64 0F 0A 13 8D F2 00 
  1058)       742.249 1  Rx        0210 -  8    01 00 00 00 00 00 00 00 
  1059)       743.358 1  Rx        0150 -  8    00 00 47 6B 2D 00 18 01 
  1060)       743.614 1  Rx        0154 -  8    00 00 02 8F 4D 05 43 01 
  1061)       744.425 1  Rx        0160 -  8    00 00 00 00 00 00 00 00 
  1062)       744.681 1  Rx        0161 -  8    00 00 00 00 00 00 00 02 
  1063)       744.894 1  Rx        0210 -  8    01 00 00 00 00 00 00 00 
  1064)       745.321 1  Rx        0210 -  8    01 00 00 00 00 00 00 00 
  1065)       746.771 1  Rx        0120 -  8    23 28 5D C0 17 90 00 00 
  1066)       746.985 1  Rx        0121 -  8    1D 73 28 01 55 53 05 00 
  1067)       747.241 1  Rx        0122 -  8    00 00 00 07 04 41 01 00 
  1068)       747.454 1  Rx        0777 -  8    E9 03 E8 03 97 3A 97 3A 
  1069)       747.710 1  Rx        0778 -  8    7C 13 E8 03 00 00 00 00 
  1070)       748.307 1  Rx        052A -  8    04 1C 06 00 00 00 00 00 
  1071)       748.563 1  Rx        052B -  8    9F 91 0F 00 00 00 00 00 
  1072)       752.105 1  Rx        0210 -  8    01 00 00 00 00 00 00 00 
  1073)       753.214 1  Rx        0150 -  8    00 00 47 6B 2D 00 18 02 
  1074)       753.427 1  Rx        0154 -  8    00 00 02 8F 4D 05 43 02 
  1075)       754.409 1  Rx        0160 -  8    00 00 00 00 00 00 00 00 
  1076)       754.665 1  Rx        0161 -  8    00 00 00 00 00 00 00 03 
  1077)       754.921 1  Rx        0210 -  8    01 00 00 00 00 00 00 00 
  1078)       755.177 1  Rx        0210 -  8    01 00 00 00 00 00 00 00 
  1079)       756.798 1  Rx        0120 -  8    23 28 5D C0 17 90 00 01 
  1080)       757.011 1  Rx        0121 -  8    1D 74 27 FE 55 53 05 01 
  1081)       757.267 1  Rx        0122 -  8    00 00 00 07 04 41 01 01 
  1082)       757.481 1  Rx        0777 -  8    E9 03 E8 03 97 3A 97 3A 
  1083)       757.737 1  Rx        0778 -  8    7C 13 E8 03 00 00 00 00 
  1084)       758.121 1  Rx        052E -  8    00 0F 00 08 00 00 AA 41 
  1085)       758.377 1  Rx        0102 -  8    18 64 0F 0A 13 8D F2 01 
  1086)       758.590 1  Rx        0153 -  8    30 00 00 00 09 00 25 04 
  1087)       759.187 1  Rx        0114 -  8    28 28 00 28 5E 80 5E 84 
  1088)       763.027 1  Rx        0150 -  8    00 00 47 6B 2D 00 18 03 
  1089)       763.283 1  Rx        0154 -  8    00 00 02 8F 4D 05 43 03 
  1090)       764.222 1  Rx        0210 -  8    01 00 00 00 00 00 00 00 
  1091)       764.478 1  Rx        0160 -  8    00 00 00 00 00 00 00 00 
  1092)       764.734 1  Rx        0161 -  8    00 00 00 00 00 00 00 04 
  1093)       764.990 1  Rx        0210 -  8    01 00 00 00 00 00 00 00 
  1094)       766.099 1  Rx        0210 -  8    01 00 00 00 00 00 00 00 
  1095)       766.739 1  Rx        0120 -  8    23 28 5D C0 17 90 00 02 
  1096)       766.995 1  Rx        0121 -  8    1D 6D 27 F8 55 53 05 02 
  1097)       767.208 1  Rx        0122 -  8    00 00 00 07 04 41 01 02 
  1098)       767.464 1  Rx        0320 -  8    00 00 00 5F 00 00 00 00 
  1099)       767.678 1  Rx        0777 -  8    E9 03 E8 03 97 3A 97 3A 
  1100)       767.934 1  Rx        0778 -  8    7C 13 E8 03 00 00 00 00 
  1101)       772.883 1  Rx        0150 -  8    00 00 47 6B 2D 00 18 04 
  1102)       773.139 1  Rx        0154 -  8    00 00 02 8F 4D 05 43 04 
  1103)       773.352 1  Rx        0190 -  8    01 00 00 00 00 00 00 00 
  1104)       774.078 1  Rx        0210 -  8    01 00 00 00 00 00 00 00 
  1105)       774.376 1  Rx        0160 -  8    00 00 00 00 00 00 00 00 
  1106)       774.632 1  Rx        0161 -  8    00 00 00 00 00 00 00 05 
  1107)       774.888 1  Rx        0210 -  8    01 00 00 00 00 00 00 00 
  1108)       775.955 1  Rx        0210 -  8    01 00 00 00 00 00 00 00 
  1109)       776.467 1  Rx        0188 -  8    40 00 B4 50 08 61 7A 10 
  1110)       776.766 1  Rx        0120 -  8    23 28 5D C0 17 90 00 03 
  1111)       776.979 1  Rx        0121 -  8    1D 66 27 FE 55 53 05 03 
  1112)       777.235 1  Rx        0122 -  8    00 00 00 07 04 41 01 03 
  1113)       777.448 1  Rx        0777 -  8    E9 03 E8 03 97 3A 97 3A 
  1114)       777.704 1  Rx        0778 -  8    7C 13 E8 03 00 00 00 00 
  1115)       778.131 1  Rx        0102 -  8    18 64 0F 0A 13 8D F2 02 
  1116)       782.739 1  Rx        0150 -  8    00 00 47 6B 2D 00 18 05 
  1117)       782.952 1  Rx        0154 -  8    00 00 02 8F 4D 05 43 05 
  1118)       783.933 1  Rx        0210 -  8    01 00 00 00 00 00 00 00 
  1119)       784.189 1  Rx        0100 -  8    0E 50 13 88 63 11 00 03 
  1120)       784.403 1  Rx        0160 -  8    00 00 00 00 00 00 00 00 
  1121)       784.659 1  Rx        0161 -  8    00 00 00 00 00 00 00 06 
  1122)       784.915 1  Rx        0210 -  8    01 00 00 00 00 00 00 00 
  1123)       785.171 1  Rx        0116 -  8    2A 34 00 00 00 00 00 09 
  1124)       785.768 1  Rx        0210 -  8    01 00 00 00 00 00 00 00 
  1125)       786.792 1  Rx        0120 -  8    23 28 5D C0 17 90 00 04 
  1126)       787.005 1  Rx        0121 -  8    1D 63 27 FE 55 53 05 04 
  1127)       787.261 1  Rx        0122 -  8    00 00 00 07 04 41 01 04 
  1128)       787.475 1  Rx        0777 -  8    E9 03 E8 03 97 3A 97 3A 
  1129)       787.731 1  Rx        0778 -  8    7C 13 E8 03 00 00 00 00 
  1130)       792.509 1  Rx        0210 -  8    01 00 00 00 00 00 00 00 
  1131)       793.661 1  Rx        0150 -  8    00 00 47 6B 2D 00 18 06 
  1132)       793.875 1  Rx        0154 -  8    00 00 02 8F 4D 05 43 06 
  1133)       794.387 1  Rx        0160 -  8    00 00 00 00 00 00 00 00 
  1134)       794.600 1  Rx        0161 -  8    00 00 00 00 00 00 00 07 
  1135)       794.856 1  Rx        0210 -  8    01 00 00 00 00 00 00 00 
  1136)       795.624 1  Rx        0210 -  8    01 00 00 00 00 00 00 00 
  1137)       796.733 1  Rx        0120 -  8    23 28 5D C0 17 90 00 05 
  1138)       796.989 1  Rx        0121 -  8    1D 67 28 0A 55 53 05 05 
  1139)       797.203 1  Rx        0102 -  8    18 64 0F 0A 13 8D F2 03 
  1140)       797.459 1  Rx        0122 -  8    00 00 00 07 04 41 01 05 
  1141)       797.672 1  Rx        0777 -  8    E9 03 E8 03 97 3A 97 3A 
  1142)       797.928 1  Rx        0778 -  8    7C 13 E8 03 00 00 00 00 
  1143)       802.365 1  Rx        0210 -  8    01 00 00 00 00 00 00 00 
  1144)       803.474 1  Rx        0150 -  8    00 00 47 6B 2D 00 18 07 
  1145)       803.730 1  Rx        0154 -  8    00 00 02 8F 4D 05 43 07 
  1146)       804.328 1  Rx        0160 -  8    00 00 00 00 00 00 00 00 
  1147)       804.584 1  Rx        0161 -  8    00 00 00 00 00 00 00 08 
  1148)       804.840 1  Rx        0210 -  8    01 00 00 00 00 00 00 00 
  1149)       805.480 1  Rx        0210 -  8    01 00 00 00 00 00 00 00 
  1150)       806.760 1  Rx        0120 -  8    23 28 5D C0 17 90 00 06 
  1151)       807.016 1  Rx        0121 -  8    1D 71 28 07 55 53 05 06 
  1152)       807.229 1  Rx        0122 -  8    00 00 00 07 04 41 01 06 
  1153)       807.485 1  Rx        0777 -  8    E9 03 E8 03 97 3A 97 3A 
  1154)       807.698 1  Rx        0778 -  8    7C 13 E8 03 00 00 00 00 
  1155)       812.178 1  Rx        0210 -  8    01 00 00 00 00 00 00 00 
  1156)       813.330 1  Rx        0150 -  8    00 00 47 6B 2D 00 18 08 
  1157)       813.544 1  Rx        0154 -  8    00 00 02 A3 4D 05 43 08 
  1158)       814.226 1  Rx        0210 -  8    01 00 00 00 00 00 00 00 
  1159)       814.482 1  Rx        0160 -  8    00 00 00 00 00 00 00 00 
  1160)       814.696 1  Rx        0161 -  8    00 00 00 00 00 00 00 09 
  1161)       815.293 1  Rx        0210 -  8    01 00 00 00 00 00 00 00 
  1162)       816.146 1  Rx        0102 -  8    18 64 0F 0A 13 8D F2 04 
  1163)       816.786 1  Rx        0120 -  8    23 28 5D C0 17 90 00 07 
  1164)       817.000 1  Rx        0121 -  8    1D 70 28 07 55 53 05 07 
  1165)       817.256 1  Rx        0122 -  8    00 00 00 07 04 41 01 07 
  1166)       817.469 1  Rx        0777 -  8    E9 03 E8 03 97 3A 97 3A 
  1167)       817.725 1  Rx        0778 -  8    7C 13 E8 03 00 00 00 00 
  1168)       819.901 1  Rx        0380 -  8    40 10 0F 08 44 48 5C 04 
  1169)       822.034 1  Rx        0210 -  8    01 00 00 00 00 00 00 00 
  1170)       822.802 1  Rx        0115 -  8    D3 D3 00 00 00 00 00 09 
  1171)       823.186 1  Rx        0150 -  8    00 00 47 6B 2D 00 18 09 
  1172)       823.399 1  Rx        0154 -  8    00 00 02 8F 4D 05 43 09 
  1173)       824.082 1  Rx        0210 -  8    01 00 00 00 00 00 00 00 
  1174)       824.338 1  Rx        0160 -  8    00 00 00 00 00 00 00 00 
  1175)       824.594 1  Rx        0161 -  8    00 00 00 00 00 00 00 0A 
  1176)       825.149 1  Rx        0210 -  8    01 00 00 00 00 00 00 00 
  1177)       826.813 1  Rx        0120 -  8    23 28 5D C0 17 90 00 08 
  1178)       827.069 1  Rx        0121 -  8    1D 62 27 F8 55 53 05 08 
  1179)       827.325 1  Rx        0122 -  8    00 00 00 07 04 41 01 08 
  1180)       827.538 1  Rx        0777 -  8    E9 03 E8 03 97 3A 97 3A 
  1181)       827.794 1  Rx        0778 -  8    7C 13 E8 03 00 00 00 00 
  1182)       828.093 1  Rx        0151 -  8    00 00 10 6C 01 00 00 08 
  1183)       828.306 1  Rx        0152 -  8    00 00 0C B3 47 01 00 08 
  1184)       833.127 1  Rx        0150 -  8    00 00 47 6B 2D 00 18 0A 
  1185)       833.383 1  Rx        0154 -  8    00 00 02 A3 4D 05 43 0A 
  1186)       834.023 1  Rx        0210 -  8    01 00 00 00 00 00 00 00 
  1187)       834.322 1  Rx        0160 -  8    00 00 00 00 00 00 00 00 
  1188)       834.578 1  Rx        0161 -  8    00 00 00 00 00 00 00 0B 
  1189)       835.133 1  Rx        0210 -  8    01 00 00 00 00 00 00 00 
  1190)       835.346 1  Rx        0102 -  8    18 64 0F 0A 13 8D F2 05 
  1191)       835.901 1  Rx        0210 -  8    01 00 00 00 00 00 00 00 
  1192)       836.754 1  Rx        0120 -  8    23 28 5D C0 17 90 00 09 
  1193)       837.010 1  Rx        0121 -  8    1D 5D 28 07 55 53 05 09 
  1194)       837.223 1  Rx        0122 -  8    00 00 00 07 04 41 01 09 
  1195)       837.479 1  Rx        0777 -  8    E9 03 E8 03 97 3A 97 3A 
  1196)       837.735 1  Rx        0778 -  8    7C 13 E8 03 00 00 00 00 
  1197)       838.119 1  Rx        052C -  8    03 2C 01 EC 0B F0 06 0D 
  1198)       838.333 1  Rx        052D -  8    04 77 05 E5 07 F0 00 32 
  1199)       843.026 1  Rx        0150 -  8    00 00 47 6B 2D 00 18 0B 
  1200)       843.239 1  Rx        0154 -  8    00 00 02 8F 4D 05 43 0B 
  1201)       843.922 1  Rx        0210 -  8    01 00 00 00 00 00 00 00 
  1202)       844.306 1  Rx        0160 -  8    00 00 00 00 00 00 00 00 
  1203)       844.562 1  Rx        0161 -  8    00 00 00 00 00 00 00 0C 
  1204)       844.988 1  Rx        0210 -  8    01 00 00 00 00 00 00 00 
  1205)       845.756 1  Rx        0210 -  8    01 00 00 00 00 00 00 00 
  1206)       846.780 1  Rx        0120 -  8    23 28 5D C0 17 90 00 0A 
  1207)       846.994 1  Rx        0121 -  8    1D 65 27 FB 55 53 05 0A 
  1208)       847.250 1  Rx        0122 -  8    00 00 00 07 04 41 01 0A 
  1209)       847.463 1  Rx        0777 -  8    E9 03 E8 03 97 3A 97 3A 
  1210)       847.719 1  Rx        0778 -  8    7C 13 E8 03 00 00 00 00 
  1211)       847.975 1  Rx        052A -  8    04 1C 06 00 00 00 00 00 
  1212)       848.188 1  Rx        052B -  8    9F 91 0F 00 00 00 00 00 
  1213)       852.882 1  Rx        0150 -  8    00 00 47 6B 2D 00 18 0C 
  1214)       853.095 1  Rx        0154 -  8    00 00 02 A3 4D 05 43 0C 
  1215)       853.778 1  Rx        0210 -  8    01 00 00 00 00 00 00 00 
  1216)       854.162 1  Rx        0102 -  8    18 64 0F 0A 13 8D F2 06 
  1217)       854.418 1  Rx        0160 -  8    00 00 00 00 00 00 00 00 
  1218)       854.674 1  Rx        0161 -  8    00 00 00 00 00 00 00 0D 
  1219)       854.887 1  Rx        0210 -  8    01 00 00 00 00 00 00 00 
  1220)       855.612 1  Rx        0210 -  8    01 00 00 00 00 00 00 00 
  1221)       856.807 1  Rx        0120 -  8    23 28 5D C0 17 90 00 0B 
  1222)       857.020 1  Rx        0121 -  8    1D 6D 27 F8 55 53 05 0B 
  1223)       857.276 1  Rx        0114 -  8    28 28 00 28 5E 80 5E 85 
  1224)       857.532 1  Rx        0122 -  8    00 00 00 07 04 41 01 0B 
  1225)       857.746 1  Rx        0777 -  8    E9 03 E8 03 97 3A 97 3A 
  1226)       858.002 1  Rx        0153 -  8    30 00 00 00 09 00 25 0E 
  1227)       858.215 1  Rx        052E -  8    00 0F 00 08 00 00 AA 41 
  1228)       858.471 1  Rx        0778 -  8    7C 13 E8 03 00 00 00 00 
  1229)       862.396 1  Rx        0210 -  8    01 00 00 00 00 00 00 00 
  1230)       863.506 1  Rx        0150 -  8    00 00 47 6B 2D 00 18 0D 
  1231)       863.762 1  Rx        0154 -  8    00 00 02 A3 4D 05 43 0D 
  1232)       864.274 1  Rx        0160 -  8    00 00 00 00 00 00 00 00 
  1233)       864.530 1  Rx        0161 -  8    00 00 00 00 00 00 00 0E 
  1234)       864.786 1  Rx        0210 -  8    01 00 00 00 00 00 00 00 
  1235)       865.468 1  Rx        0210 -  8    01 00 00 00 00 00 00 00 
  1236)       866.791 1  Rx        0120 -  8    23 28 5D C0 17 90 00 0C 
  1237)       867.004 1  Rx        0121 -  8    1D 70 28 0A 55 53 05 0C 
  1238)       867.260 1  Rx        0122 -  8    00 00 00 07 04 41 01 0C 
  1239)       867.473 1  Rx        0320 -  8    00 00 00 5F 00 00 00 00 
  1240)       867.729 1  Rx        0777 -  8    E8 03 E8 03 97 3A 97 3A 
  1241)       867.943 1  Rx        0778 -  8    7C 13 E8 03 00 00 00 00 
  1242)       872.252 1  Rx        0210 -  8    01 00 00 00 00 00 00 00 
  1243)       872.977 1  Rx        0190 -  8    01 00 00 00 00 00 00 00 
  1244)       873.191 1  Rx        0102 -  8    18 64 0F 0A 13 8D F2 07 
  1245)       873.447 1  Rx        0150 -  8    00 00 47 6B 2D 00 18 0E 
  1246)       873.660 1  Rx        0154 -  8    00 00 02 8F 4D 05 43 0E 
  1247)       874.300 1  Rx        0160 -  8    00 00 00 00 00 00 00 00 
  1248)       874.556 1  Rx        0161 -  8    00 00 00 00 00 00 00 0F 
  1249)       874.769 1  Rx        0210 -  8    01 00 00 00 00 00 00 00 
  1250)       875.324 1  Rx        0210 -  8    01 00 00 00 00 00 00 00 
  1251)       876.391 1  Rx        0188 -  8    40 00 B3 50 08 61 7A 10 
  1252)       876.775 1  Rx        0120 -  8    23 28 5D C0 17 90 00 0D 
  1253)       876.988 1  Rx        0121 -  8    1D 6E 28 0A 55 53 05 0D 
  1254)       877.244 1  Rx        0122 -  8    00 00 00 07 04 41 01 0D 
  1255)       877.457 1  Rx        0777 -  8    E8 03 E8 03 97 3A 97 3A 
  1256)       877.713 1  Rx        0778 -  8    7C 13 E8 03 00 00 00 00 
  1257)       882.065 1  Rx        0210 -  8    01 00 00 00 00 00 00 00 
  1258)       883.217 1  Rx        0150 -  8    00 00 47 6B 2D 00 18 0F 
  1259)       883.473 1  Rx        0154 -  8    00 00 02 A3 4D 05 43 0F 
  1260)       884.156 1  Rx        0100 -  8    0E 50 13 88 63 11 00 04 
  1261)       884.412 1  Rx        0160 -  8    00 00 00 00 00 00 00 00 
  1262)       884.668 1  Rx        0161 -  8    00 00 00 00 00 00 00 00 
  1263)       884.924 1  Rx        0210 -  8    01 00 00 00 00 00 00 00 
  1264)       885.180 1  Rx        0210 -  8    01 00 00 00 00 00 00 00 
  1265)       886.204 1  Rx        0112 -  8    16 10 1C 30 10 0C 00 05 
  1266)       886.417 1  Rx        0113 -  8    01 45 03 44 00 0D 00 05 
  1267)       886.673 1  Rx        0116 -  8    2A 34 00 00 00 00 00 0A 
  1268)       886.887 1  Rx        0120 -  8    23 28 5D C0 17 90 00 0E 
  1269)       887.142 1  Rx        0121 -  8    1D 61 28 07 55 53 05 0E 
  1270)       887.356 1  Rx        0122 -  8    00 00 00 07 04 41 01 0E 
  1271)       887.612 1  Rx        0777 -  8    E8 03 E8 03 97 3A 97 3A 
  1272)       887.868 1  Rx        0778 -  8    7C 13 E8 03 00 00 00 00 
  1273)       892.817 1  Rx        0102 -  8    18 64 0F 0A 13 8D F2 08 
  1274)       893.073 1  Rx        0150 -  8    00 00 47 6B 2D 00 18 00 
  1275)       893.286 1  Rx        0154 -  8    00 00 02 8F 4D 05 43 00 
  1276)       894.225 1  Rx        0210 -  8    01 00 00 00 00 00 00 00 
  1277)       894.481 1  Rx        0160 -  8    00 00 00 00 00 00 00 00 
  1278)       894.737 1  Rx        0161 -  8    00 00 00 00 00 00 00 01 
  1279)       895.036 1  Rx        0210 -  8    01 00 00 00 00 00 00 00 
  1280)       896.102 1  Rx        0210 -  8    01 00 00 00 00 00 00 00 
  1281)       896.870 1  Rx        0120 -  8    23 28 5D C0 17 90 00 0F 
  1282)       897.084 1  Rx        0121 -  8    1D 66 27 FE 55 53 05 0F 
  1283)       897.340 1  Rx        0122 -  8    00 00 00 07 04 41 01 0F 
  1284)       897.553 1  Rx        0777 -  8    E8 03 E8 03 97 3A 97 3A 
  1285)       897.809 1  Rx        0778 -  8    7C 13 E8 03 00 00 00 00 
  1286)       902.886 1  Rx        0150 -  8    00 00 47 6B 2D 00 18 01 
  1287)       903.142 1  Rx        0154 -  8    00 00 02 8F 4D 05 43 01 
  1288)       904.124 1  Rx        0210 -  8    01 00 00 00 00 00 00 00 
  1289)       904.337 1  Rx        0160 -  8    00 00 00 00 00 00 00 00 
  1290)       904.593 1  Rx        0161 -  8    00 00 00 00 00 00 00 02 
  1291)       904.892 1  Rx        0210 -  8    01 00 00 00 00 00 00 00 
  1292)       905.958 1  Rx        0210 -  8    01 00 00 00 00 00 00 00 
  1293)       906.769 1  Rx        0120 -  8    23 28 5D C0 17 90 00 00 
  1294)       907.025 1  Rx        0121 -  8    1D 62 27 F8 55 53 05 00 
  1295)       907.238 1  Rx        0122 -  8    00 00 00 07 04 41 01 00 
  1296)       907.494 1  Rx        0777 -  8    E8 03 E8 03 97 3A 98 3A 
  1297)       907.750 1  Rx        0778 -  8    7C 13 E8 03 00 00 00 00 
  1298)       911.206 1  Rx        0102 -  8    18 64 0F 0A 13 8D F2 09 
  1299)       912.699 1  Rx        0210 -  8    01 00 00 00 00 00 00 00 
  1300)       913.809 1  Rx        0150 -  8    00 00 47 6B 2D 00 18 02 
  1301)       914.065 1  Rx        0154 -  8    00 00 02 8F 4D 05 43 02 
  1302)       914.321 1  Rx        0160 -  8    00 00 00 00 00 00 00 00 
  1303)       914.534 1  Rx        0161 -  8    00 00 00 00 00 00 00 03 
  1304)       914.790 1  Rx        0210 -  8    01 00 00 00 00 00 00 00 
  1305)       915.814 1  Rx        0210 -  8    01 00 00 00 00 00 00 00 
  1306)       916.753 1  Rx        0120 -  8    23 28 5D C0 17 90 00 01 
  1307)       917.009 1  Rx        0121 -  8    1D 71 28 01 55 53 05 01 
  1308)       917.222 1  Rx        0122 -  8    00 00 00 07 04 41 01 01 
  1309)       917.478 1  Rx        0777 -  8    E8 03 E8 03 97 3A 98 3A 
  1310)       917.691 1  Rx        0778 -  8    7C 13 E8 03 00 00 00 00 
  1311)       919.910 1  Rx        0380 -  8    41 10 12 09 44 48 5C 05 
  1312)       921.275 1  Rx        0115 -  8    D3 D3 00 00 00 00 00 0A 
  1313)       922.555 1  Rx        0210 -  8    01 00 00 00 00 00 00 00 
  1314)       923.665 1  Rx        0150 -  8    00 00 47 6B 2D 00 18 03 
  1315)       923.921 1  Rx        0154 -  8    00 00 02 8F 4D 05 43 03 
  1316)       924.219 1  Rx        0160 -  8    00 00 00 00 00 00 00 00 
  1317)       924.475 1  Rx        0161 -  8    00 00 00 00 00 00 00 04 
  1318)       924.731 1  Rx        0210 -  8    01 00 00 00 00 00 00 00 
  1319)       925.627 1  Rx        0210 -  8    01 00 00 00 00 00 00 00 
  1320)       926.865 1  Rx        0120 -  8    23 28 5D C0 17 90 00 02 
  1321)       927.078 1  Rx        0121 -  8    1D 6F 27 FE 55 53 05 02 
  1322)       927.334 1  Rx        0122 -  8    00 00 00 07 04 41 01 02 
  1323)       927.547 1  Rx        0777 -  8    E8 03 E8 03 97 3A 98 3A 
  1324)       927.803 1  Rx        0778 -  8    7C 13 E8 03 00 00 00 00 
  1325)       928.614 1  Rx        0151 -  8    00 00 10 6C 01 00 00 09 
  1326)       928.827 1  Rx        0152 -  8    00 00 0C B3 47 01 00 09 
  1327)       931.259 1  Rx        0102 -  8    18 64 0F 0A 13 8D F2 0A 
  1328)       932.411 1  Rx        0210 -  8    01 00 00 00 00 00 00 00 
  1329)       933.520 1  Rx        0150 -  8    00 00 47 6B 2D 00 18 04 
  1330)       933.776 1  Rx        0154 -  8    00 00 02 A3 4D 05 43 04 
  1331)       933.990 1  Rx        0330 -  8    00 80 00 00 00 00 00 00 
  1332)       934.246 1  Rx        0160 -  8    00 00 00 00 00 00 00 00 
  1333)       934.502 1  Rx        0161 -  8    00 00 00 00 00 00 00 05 
  1334)       934.758 1  Rx        0210 -  8    01 00 00 00 00 00 00 00 
  1335)       935.483 1  Rx        0210 -  8    01 00 00 00 00 00 00 00 
  1336)       936.763 1  Rx        0120 -  8    23 28 5D C0 17 90 00 03 
  1337)       937.019 1  Rx        0121 -  8    1D 6F 27 FB 55 53 05 03 
  1338)       937.232 1  Rx        0122 -  8    00 00 00 07 04 41 01 03 
