;$FILEVERSION=1.3
;$STARTTIME=42905.5696176735
;
;   C:\Users\gyz\Desktop\电咖报文0619\怠速前进.trc
;   Start time: 2017/6/19 13:40:14.966.9
;   Generated by PCAN-Explorer v5.3.4
;-------------------------------------------------------------------------------
;   Bus  Name         Connection         Protocol  Bit rate
;   1    Connection1  Untitled@pcan_usb  CAN       500 kbit/s
;-------------------------------------------------------------------------------
;   Message Number
;   |         Time Offset (ms)
;   |         |       Bus
;   |         |       |    Type
;   |         |       |    |       ID (hex)
;   |         |       |    |       |    Reserved
;   |         |       |    |       |    |   Data Length Code
;   |         |       |    |       |    |   |    Data Bytes (hex) ...
;   |         |       |    |       |    |   |    |
;   |         |       |    |       |    |   |    |
;---+-- ------+------ +- --+-- ----+--- +- -+-- -+ -- -- -- -- -- -- --
     1)         0.232 1  Rx        0210 -  8    01 00 00 00 00 00 00 00 
     2)         0.872 1  Rx        0320 -  8    00 00 00 5F 00 00 00 00 
     3)         1.341 1  Rx        0160 -  8    00 00 00 00 00 00 00 00 
     4)         1.597 1  Rx        0161 -  8    00 00 00 00 00 00 00 03 
     5)         3.901 1  Rx        0150 -  8    00 00 47 63 2D 00 00 0D 
     6)         4.157 1  Rx        0154 -  8    00 00 02 74 4D 05 42 0D 
     7)         4.840 1  Rx        0120 -  8    23 28 5D C0 17 6F 00 05 
     8)         5.096 1  Rx        0121 -  8    1D 6E 27 F8 56 52 00 05 
     9)         5.309 1  Rx        0122 -  8    00 00 00 07 04 41 01 05 
    10)         5.565 1  Rx        0100 -  8    0E 54 13 88 64 11 00 09 
    11)         5.778 1  Rx        0102 -  8    18 64 0F 0A 13 8D F2 0C 
    12)         6.034 1  Rx        0777 -  8    E7 03 E8 03 98 3A 98 3A 
    13)         6.290 1  Rx        0778 -  8    88 13 E8 03 00 00 00 00 
    14)         6.930 1  Rx        0210 -  8    01 00 00 00 00 00 00 00 
    15)         7.741 1  Rx        0210 -  8    01 00 00 00 00 00 00 00 
    16)         8.808 1  Rx        0151 -  8    00 00 10 6C 01 00 00 02 
    17)         9.021 1  Rx        0152 -  8    00 00 08 33 47 01 00 02 
    18)        10.002 1  Rx        0210 -  8    01 00 00 00 00 00 00 00 
    19)        11.325 1  Rx        0160 -  8    00 00 00 00 00 00 00 00 
    20)        11.581 1  Rx        0161 -  8    00 00 00 00 00 00 00 04 
    21)        11.837 1  Rx        0188 -  8    40 00 6A 51 08 61 7A 10 
    22)        13.800 1  Rx        0150 -  8    00 00 47 63 2D 00 00 0E 
    23)        14.056 1  Rx        0154 -  8    00 00 02 74 4D 05 42 0E 
    24)        14.312 1  Rx        0330 -  8    00 80 00 00 00 00 00 00 
    25)        14.866 1  Rx        0120 -  8    23 28 5D C0 17 6F 00 06 
    26)        15.080 1  Rx        0121 -  8    1D 79 28 07 56 52 00 06 
    27)        15.336 1  Rx        0122 -  8    00 00 00 07 04 41 01 06 
    28)        15.549 1  Rx        0777 -  8    E7 03 E8 03 98 3A 98 3A 
    29)        15.805 1  Rx        0778 -  8    88 13 E8 03 00 00 00 00 
    30)        16.829 1  Rx        0210 -  8    01 00 00 00 00 00 00 00 
    31)        17.597 1  Rx        0210 -  8    01 00 00 00 00 00 00 00 
    32)        18.706 1  Rx        052C -  8    03 3D 01 E0 0A 7E 05 78 
    33)        18.919 1  Rx        052D -  8    04 12 05 B6 08 09 00 1E 
    34)        19.901 1  Rx        0210 -  8    01 00 00 00 00 00 00 00 
    35)        21.351 1  Rx        0160 -  8    00 00 00 00 00 00 00 00 
    36)        21.565 1  Rx        0161 -  8    00 00 00 00 00 00 00 05 
    37)        23.570 1  Rx        0150 -  8    00 00 47 63 2D 00 00 0F 
    38)        23.826 1  Rx        0154 -  8    00 00 02 74 4D 05 42 0F 
    39)        24.850 1  Rx        0120 -  8    23 28 5D C0 17 70 00 07 
    40)        25.106 1  Rx        0121 -  8    1D 7A 27 E8 56 52 00 07 
    41)        25.319 1  Rx        0102 -  8    18 64 0F 0A 13 8D F2 0D 
    42)        25.575 1  Rx        0122 -  8    00 00 00 07 04 41 01 07 
    43)        25.831 1  Rx        0190 -  8    01 00 00 00 00 00 00 00 
    44)        26.045 1  Rx        0777 -  8    E7 03 E8 03 98 3A 98 3A 
    45)        26.301 1  Rx        0778 -  8    88 13 E8 03 00 00 00 00 
    46)        26.599 1  Rx        0210 -  8    01 00 00 00 00 00 00 00 
    47)        27.367 1  Rx        0210 -  8    01 00 00 00 00 00 00 00 
    48)        28.477 1  Rx        052A -  8    10 0C 06 00 00 00 00 00 
    49)        28.690 1  Rx        052B -  8    9F 81 0F 00 00 00 00 00 
    50)        29.629 1  Rx        0210 -  8    01 00 00 00 00 00 00 00 
    51)        31.335 1  Rx        0160 -  8    00 00 00 00 00 00 00 00 
    52)        31.591 1  Rx        0161 -  8    00 00 00 00 00 00 00 06 
    53)        34.407 1  Rx        0150 -  8    00 00 47 63 2D 00 00 00 
    54)        34.621 1  Rx        0154 -  8    00 00 02 88 4D 05 42 00 
    55)        34.877 1  Rx        0120 -  8    23 28 5D C0 17 70 00 08 
    56)        35.090 1  Rx        0121 -  8    1D 77 28 01 56 52 00 08 
    57)        35.346 1  Rx        0122 -  8    00 00 00 07 04 41 01 08 
    58)        35.559 1  Rx        0777 -  8    E7 03 E8 03 98 3A 98 3A 
    59)        35.815 1  Rx        0778 -  8    88 13 E8 03 00 00 00 00 
    60)        37.138 1  Rx        0210 -  8    01 00 00 00 00 00 00 00 
    61)        38.205 1  Rx        0210 -  8    01 00 00 00 00 00 00 00 
    62)        39.314 1  Rx        052E -  8    00 07 00 05 00 00 65 95 
    63)        39.570 1  Rx        0153 -  8    20 00 00 00 09 10 25 03 
    64)        40.210 1  Rx        0210 -  8    01 00 00 00 00 00 00 00 
    65)        41.319 1  Rx        0160 -  8    00 00 00 00 00 00 00 00 
    66)        41.575 1  Rx        0161 -  8    00 00 00 00 00 00 00 07 
    67)        44.178 1  Rx        0150 -  8    00 00 47 63 2D 00 00 01 
    68)        44.391 1  Rx        0154 -  8    00 00 02 88 4D 05 42 01 
    69)        44.818 1  Rx        0120 -  8    23 28 5D C0 17 6F 00 09 
    70)        45.074 1  Rx        0121 -  8    1D 6E 28 04 56 52 00 09 
    71)        45.287 1  Rx        0102 -  8    18 64 0F 0A 13 8D F2 0E 
    72)        45.543 1  Rx        0122 -  8    00 00 00 07 04 41 01 09 
    73)        45.756 1  Rx        0777 -  8    E7 03 E8 03 98 3A 98 3A 
    74)        46.012 1  Rx        0778 -  8    88 13 E8 03 00 00 00 00 
    75)        46.866 1  Rx        0210 -  8    01 00 00 00 00 00 00 00 
    76)        47.975 1  Rx        0210 -  8    01 00 00 00 00 00 00 00 
    77)        48.530 1  Rx        0115 -  8    D3 D3 00 00 00 00 00 07 
    78)        48.743 1  Rx        0114 -  8    28 28 00 28 5E 80 5E CE 
    79)        49.895 1  Rx        0210 -  8    01 00 00 00 00 00 00 00 
    80)        51.303 1  Rx        0160 -  8    00 00 00 00 00 00 00 00 
    81)        51.559 1  Rx        0161 -  8    00 00 00 00 00 00 00 08 
    82)        53.906 1  Rx        0150 -  8    00 00 47 63 2D 00 00 02 
    83)        54.119 1  Rx        0154 -  8    00 00 02 88 4D 05 42 02 
    84)        54.930 1  Rx        0120 -  8    23 28 5D C0 17 70 00 0A 
    85)        55.143 1  Rx        0121 -  8    1D 6D 27 F8 56 52 00 0A 
    86)        55.399 1  Rx        0122 -  8    00 00 00 07 04 41 01 0A 
    87)        55.612 1  Rx        0777 -  8    E7 03 E8 03 98 3A 98 3A 
    88)        55.868 1  Rx        0778 -  8    88 13 E8 03 00 00 00 00 
    89)        56.594 1  Rx        0210 -  8    01 00 00 00 00 00 00 00 
    90)        57.703 1  Rx        0210 -  8    01 00 00 00 00 00 00 00 
    91)        59.623 1  Rx        0210 -  8    01 00 00 00 00 00 00 00 
    92)        61.287 1  Rx        0160 -  8    00 00 00 00 00 00 00 00 
    93)        61.543 1  Rx        0161 -  8    00 00 00 00 00 00 00 09 
    94)        63.548 1  Rx        0102 -  8    18 64 0F 0A 13 8D F2 0F 
    95)        63.804 1  Rx        0150 -  8    00 00 47 63 2D 00 00 03 
    96)        64.017 1  Rx        0154 -  8    00 00 02 88 4D 05 42 03 
    97)        64.828 1  Rx        0120 -  8    23 28 5D C0 17 70 00 0B 
    98)        65.041 1  Rx        0121 -  8    1D 7C 27 EE 56 52 00 0B 
    99)        65.297 1  Rx        0122 -  8    00 00 00 07 04 41 01 0B 
   100)        65.553 1  Rx        0116 -  8    2A 34 00 00 00 00 00 03 
   101)        65.767 1  Rx        0777 -  8    E7 03 E8 03 98 3A 97 3A 
   102)        66.023 1  Rx        0778 -  8    88 13 E8 03 00 00 00 00 
   103)        67.431 1  Rx        0210 -  8    01 00 00 00 00 00 00 00 
   104)        69.351 1  Rx        0210 -  8    01 00 00 00 00 00 00 00 
   105)        70.460 1  Rx        0210 -  8    01 00 00 00 00 00 00 00 
   106)        71.313 1  Rx        0160 -  8    00 00 00 00 00 00 00 00 
   107)        71.527 1  Rx        0161 -  8    00 00 00 00 00 00 00 0A 
   108)        74.129 1  Rx        0150 -  8    00 00 47 63 2D 00 00 04 
   109)        74.343 1  Rx        0154 -  8    00 00 02 74 4D 05 42 04 
   110)        74.812 1  Rx        0120 -  8    23 28 5D C0 17 6F 00 0C 
   111)        75.068 1  Rx        0121 -  8    1D 79 28 0A 56 52 00 0C 
   112)        75.281 1  Rx        0122 -  8    00 00 00 07 04 41 01 0C 
   113)        75.537 1  Rx        0777 -  8    E7 03 E8 03 97 3A 97 3A 
   114)        75.793 1  Rx        0778 -  8    88 13 E8 03 00 00 00 00 
   115)        77.159 1  Rx        0210 -  8    01 00 00 00 00 00 00 00 
   116)        77.927 1  Rx        0210 -  8    01 00 00 00 00 00 00 00 
   117)        80.188 1  Rx        0210 -  8    01 00 00 00 00 00 00 00 
   118)        81.297 1  Rx        0160 -  8    00 00 00 00 00 00 00 00 
   119)        81.511 1  Rx        0161 -  8    00 00 00 00 00 00 00 0B 
   120)        82.492 1  Rx        0102 -  8    18 64 0F 0A 13 8D F2 00 
   121)        83.857 1  Rx        0150 -  8    00 00 47 63 2D 00 00 05 
   122)        84.113 1  Rx        0154 -  8    00 00 02 88 4D 05 42 05 
   123)        84.881 1  Rx        0120 -  8    23 28 5D C0 17 70 00 0D 
   124)        85.137 1  Rx        0121 -  8    1D 82 27 F8 56 52 00 0D 
   125)        85.393 1  Rx        0122 -  8    00 00 00 07 04 41 01 0D 
   126)        85.606 1  Rx        0777 -  8    E7 03 E8 03 97 3A 97 3A 
   127)        85.862 1  Rx        0778 -  8    88 13 E8 03 00 00 00 00 
   128)        86.886 1  Rx        0210 -  8    01 00 00 00 00 00 00 00 
   129)        87.654 1  Rx        0210 -  8    01 00 00 00 00 00 00 00 
   130)        89.916 1  Rx        0210 -  8    01 00 00 00 00 00 00 00 
   131)        90.342 1  Rx        0380 -  8    30 10 13 05 44 48 5C 0E 
   132)        91.281 1  Rx        0160 -  8    00 00 00 00 00 00 00 00 
   133)        91.537 1  Rx        0161 -  8    00 00 00 00 00 00 00 0C 
   134)        93.585 1  Rx        0150 -  8    00 00 47 63 2D 00 00 06 
   135)        93.841 1  Rx        0154 -  8    00 00 02 88 4D 05 42 06 
   136)        94.822 1  Rx        0120 -  8    23 28 5D C0 17 6F 00 0E 
   137)        95.036 1  Rx        0121 -  8    1D 7C 28 01 56 52 00 0E 
   138)        95.292 1  Rx        0122 -  8    00 00 00 07 04 41 01 0E 
   139)        95.505 1  Rx        0777 -  8    E7 03 E8 03 97 3A 97 3A 
   140)        95.761 1  Rx        0778 -  8    88 13 E8 03 00 00 00 00 
   141)        96.614 1  Rx        0210 -  8    01 00 00 00 00 00 00 00 
   142)        97.382 1  Rx        0210 -  8    01 00 00 00 00 00 00 00 
   143)        99.644 1  Rx        0210 -  8    01 00 00 00 00 00 00 00 
   144)       100.966 1  Rx        0320 -  8    00 00 00 5F 00 00 00 00 
   145)       101.265 1  Rx        0160 -  8    00 00 00 00 00 00 00 00 
   146)       101.478 1  Rx        0102 -  8    18 64 0F 0A 13 8D F2 01 
   147)       101.734 1  Rx        0161 -  8    00 00 00 00 00 00 00 0D 
   148)       104.379 1  Rx        0150 -  8    00 00 47 63 2D 00 00 07 
   149)       104.635 1  Rx        0154 -  8    00 00 02 88 4D 05 42 07 
   150)       104.849 1  Rx        0120 -  8    23 28 5D C0 17 70 00 0F 
   151)       105.105 1  Rx        0121 -  8    1D 6D 27 FB 56 52 00 0F 
   152)       105.361 1  Rx        0122 -  8    00 00 00 07 04 41 01 0F 
   153)       105.574 1  Rx        0777 -  8    E7 03 E8 03 97 3A 97 3A 
   154)       105.830 1  Rx        0778 -  8    88 13 E8 03 00 00 00 00 
   155)       106.513 1  Rx        0100 -  8    0E 54 13 88 64 11 00 0A 
   156)       107.110 1  Rx        0210 -  8    01 00 00 00 00 00 00 00 
   157)       108.219 1  Rx        0210 -  8    01 00 00 00 00 00 00 00 
   158)       109.286 1  Rx        0151 -  8    00 00 10 6C 01 00 00 03 
   159)       109.542 1  Rx        0152 -  8    00 00 08 33 47 01 00 03 
   160)       110.182 1  Rx        0210 -  8    01 00 00 00 00 00 00 00 
   161)       111.249 1  Rx        0160 -  8    00 00 00 00 00 00 00 00 
   162)       111.505 1  Rx        0161 -  8    00 00 00 00 00 00 00 0E 
   163)       111.974 1  Rx        0188 -  8    40 00 6A 51 08 61 7A 10 
   164)       114.150 1  Rx        0150 -  8    00 00 47 63 2D 00 00 08 
   165)       114.363 1  Rx        0154 -  8    00 00 02 88 4D 05 42 08 
   166)       114.875 1  Rx        0120 -  8    23 28 5D C0 17 6F 00 00 
   167)       115.089 1  Rx        0121 -  8    1D 72 28 01 56 52 00 00 
   168)       115.345 1  Rx        0122 -  8    00 00 00 07 04 41 01 00 
   169)       115.558 1  Rx        0777 -  8    E7 03 E8 03 97 3A 97 3A 
   170)       115.814 1  Rx        0778 -  8    88 13 E8 03 00 00 00 00 
   171)       116.881 1  Rx        0210 -  8    01 00 00 00 00 00 00 00 
   172)       117.947 1  Rx        0210 -  8    01 00 00 00 00 00 00 00 
   173)       119.057 1  Rx        052C -  8    03 24 01 DE 0A 83 05 7D 
   174)       119.270 1  Rx        052D -  8    04 23 05 B0 08 22 00 1E 
   175)       119.953 1  Rx        0210 -  8    01 00 00 00 00 00 00 00 
   176)       120.635 1  Rx        0102 -  8    18 64 0F 0A 13 8D F2 02 
   177)       121.233 1  Rx        0160 -  8    00 00 00 00 00 00 00 00 
   178)       121.489 1  Rx        0161 -  8    00 00 00 00 00 00 00 0F 
   179)       123.878 1  Rx        0150 -  8    00 00 47 63 2D 00 00 09 
   180)       124.134 1  Rx        0154 -  8    00 00 02 88 4D 05 42 09 
   181)       124.816 1  Rx        0120 -  8    23 28 5D C0 17 70 00 01 
   182)       125.072 1  Rx        0121 -  8    1D 6D 27 F8 56 52 00 01 
   183)       125.286 1  Rx        0122 -  8    00 00 00 07 04 41 01 01 
   184)       125.542 1  Rx        0190 -  8    01 00 00 00 00 00 00 00 
   185)       125.798 1  Rx        0777 -  8    E7 03 E8 03 97 3A 97 3A 
   186)       126.011 1  Rx        0778 -  8    88 13 E8 03 00 00 00 00 
   187)       126.608 1  Rx        0210 -  8    01 00 00 00 00 00 00 00 
   188)       127.718 1  Rx        0210 -  8    01 00 00 00 00 00 00 00 
   189)       128.784 1  Rx        052A -  8    10 0C 06 00 00 00 00 00 
   190)       129.040 1  Rx        052B -  8    9F 81 0F 00 00 00 00 00 
   191)       129.680 1  Rx        0210 -  8    01 00 00 00 00 00 00 00 
   192)       131.216 1  Rx        0160 -  8    00 00 00 00 00 00 00 00 
   193)       131.472 1  Rx        0161 -  8    00 00 00 00 00 00 00 00 
   194)       133.648 1  Rx        0150 -  8    00 00 47 63 2D 00 00 0A 
   195)       133.904 1  Rx        0154 -  8    00 00 02 88 4D 05 42 0A 
   196)       134.843 1  Rx        0120 -  8    23 28 5D C0 17 6F 00 02 
   197)       135.056 1  Rx        0121 -  8    1D 7D 28 04 56 52 00 02 
   198)       135.312 1  Rx        0122 -  8    00 00 00 07 04 41 01 02 
   199)       135.526 1  Rx        0777 -  8    E7 03 E8 03 98 3A 97 3A 
   200)       135.782 1  Rx        0778 -  8    88 13 E8 03 00 00 00 00 
   201)       137.446 1  Rx        0210 -  8    01 00 00 00 00 00 00 00 
   202)       138.555 1  Rx        052E -  8    00 07 00 05 00 00 65 95 
   203)       138.768 1  Rx        0153 -  8    20 00 00 00 09 10 25 0D 
   204)       139.451 1  Rx        0210 -  8    01 00 00 00 00 00 00 00 
   205)       139.664 1  Rx        0102 -  8    18 64 0F 0A 13 8D F2 03 
   206)       140.518 1  Rx        0210 -  8    01 00 00 00 00 00 00 00 
   207)       141.243 1  Rx        0160 -  8    00 00 00 00 00 00 00 00 
   208)       141.456 1  Rx        0161 -  8    00 00 00 00 00 00 00 01 
   209)       144.187 1  Rx        0150 -  8    00 00 47 63 2D 00 00 0B 
   210)       144.443 1  Rx        0154 -  8    00 00 02 88 4D 05 42 0B 
   211)       144.870 1  Rx        0120 -  8    23 28 5D C0 17 70 00 03 
   212)       145.083 1  Rx        0121 -  8    1D 7D 27 F5 56 52 00 03 
   213)       145.339 1  Rx        0122 -  8    00 00 00 07 04 41 01 03 
   214)       145.595 1  Rx        0114 -  8    28 28 00 28 5E 80 5E 8F 
   215)       145.808 1  Rx        0777 -  8    E7 03 E8 03 98 3A 98 3A 
   216)       146.064 1  Rx        0778 -  8    88 13 E8 03 00 00 00 00 
   217)       146.405 1  Rx        0115 -  8    D3 D3 00 00 00 00 00 08 
   218)       147.216 1  Rx        0210 -  8    01 00 00 00 00 00 00 00 
   219)       147.984 1  Rx        0210 -  8    01 00 00 00 00 00 00 00 
   220)       150.245 1  Rx        0210 -  8    01 00 00 00 00 00 00 00 
   221)       151.227 1  Rx        0160 -  8    00 00 00 00 00 00 00 00 
   222)       151.483 1  Rx        0161 -  8    00 00 00 00 00 00 00 02 
   223)       153.915 1  Rx        0150 -  8    00 00 47 63 2D 00 00 0C 
   224)       154.171 1  Rx        0154 -  8    00 00 02 88 4D 05 42 0C 
   225)       154.811 1  Rx        0120 -  8    23 28 5D C0 17 6F 00 04 
   226)       155.067 1  Rx        0121 -  8    1D 7F 27 F5 56 52 00 04 
   227)       155.280 1  Rx        0122 -  8    00 00 00 07 04 41 01 04 
   228)       155.536 1  Rx        0777 -  8    E7 03 E8 03 98 3A 98 3A 
   229)       155.792 1  Rx        0778 -  8    88 13 E8 03 00 00 00 00 
   230)       156.944 1  Rx        0210 -  8    01 00 00 00 00 00 00 00 
   231)       157.755 1  Rx        0210 -  8    01 00 00 00 00 00 00 00 
   232)       158.480 1  Rx        0102 -  8    18 64 0F 0A 13 8D F2 04 
   233)       160.016 1  Rx        0210 -  8    01 00 00 00 00 00 00 00 
   234)       161.211 1  Rx        0160 -  8    00 00 00 00 00 00 00 00 
   235)       161.467 1  Rx        0161 -  8    00 00 00 00 00 00 00 03 
   236)       163.643 1  Rx        0150 -  8    00 00 47 63 2D 00 00 0D 
   237)       163.899 1  Rx        0154 -  8    00 00 02 88 4D 05 42 0D 
   238)       164.837 1  Rx        0120 -  8    23 28 5D C0 17 6F 00 05 
   239)       165.093 1  Rx        0121 -  8    1D 7E 27 F2 56 52 00 05 
   240)       165.307 1  Rx        0122 -  8    00 00 00 07 04 41 01 05 
   241)       165.563 1  Rx        0777 -  8    E8 03 E8 03 98 3A 98 3A 
   242)       165.776 1  Rx        0778 -  8    88 13 E8 03 00 00 00 00 
   243)       166.544 1  Rx        0112 -  8    16 10 20 39 10 12 00 0A 
   244)       166.800 1  Rx        0113 -  8    01 45 44 44 00 0D 00 0A 
   245)       167.056 1  Rx        0116 -  8    2A 34 00 00 00 00 00 04 
   246)       167.312 1  Rx        0210 -  8    01 00 00 00 00 00 00 00 
   247)       167.525 1  Rx        0210 -  8    01 00 00 00 00 00 00 00 
   248)       169.744 1  Rx        0210 -  8    01 00 00 00 00 00 00 00 
   249)       171.194 1  Rx        0160 -  8    00 00 00 00 00 00 00 00 
   250)       171.450 1  Rx        0161 -  8    00 00 00 00 00 00 00 04 
   251)       174.480 1  Rx        0150 -  8    00 00 47 63 2D 00 00 0E 
   252)       174.693 1  Rx        0154 -  8    00 00 02 74 4D 05 42 0E 
   253)       174.949 1  Rx        0120 -  8    23 28 5D C0 17 6F 00 06 
   254)       175.162 1  Rx        0121 -  8    1D 6B 28 04 56 52 00 06 
   255)       175.418 1  Rx        0122 -  8    00 00 00 07 04 41 01 06 
   256)       175.632 1  Rx        0777 -  8    E7 03 E8 03 98 3A 97 3A 
   257)       175.888 1  Rx        0778 -  8    88 13 E8 03 00 00 00 00 
   258)       177.168 1  Rx        0210 -  8    01 00 00 00 00 00 00 00 
   259)       177.552 1  Rx        0102 -  8    18 64 0F 0A 13 8D F2 05 
   260)       178.277 1  Rx        0210 -  8    01 00 00 00 00 00 00 00 
   261)       180.240 1  Rx        0210 -  8    01 00 00 00 00 00 00 00 
   262)       181.178 1  Rx        0160 -  8    00 00 00 00 00 00 00 00 
   263)       181.434 1  Rx        0161 -  8    00 00 00 00 00 00 00 05 
   264)       184.165 1  Rx        0150 -  8    00 00 47 63 2D 00 00 0F 
   265)       184.421 1  Rx        0154 -  8    00 00 02 74 4D 05 42 0F 
   266)       184.890 1  Rx        0120 -  8    23 28 5D C0 17 70 00 07 
   267)       185.146 1  Rx        0121 -  8    1D 76 27 EE 56 52 00 07 
   268)       185.402 1  Rx        0122 -  8    00 00 00 07 04 41 01 07 
   269)       185.616 1  Rx        0777 -  8    E7 03 E8 03 97 3A 97 3A 
   270)       185.872 1  Rx        0778 -  8    88 13 E8 03 00 00 00 00 
   271)       186.896 1  Rx        0210 -  8    01 00 00 00 00 00 00 00 
   272)       188.005 1  Rx        0210 -  8    01 00 00 00 00 00 00 00 
   273)       189.967 1  Rx        0210 -  8    01 00 00 00 00 00 00 00 
   274)       190.309 1  Rx        0380 -  8    31 10 17 06 28 48 5C 0F 
   275)       191.162 1  Rx        0160 -  8    00 00 00 00 00 00 00 00 
   276)       191.418 1  Rx        0161 -  8    00 00 00 00 00 00 00 06 
   277)       193.935 1  Rx        0150 -  8    00 00 47 63 2D 00 00 00 
   278)       194.149 1  Rx        0154 -  8    00 00 02 74 4D 05 42 00 
   279)       194.831 1  Rx        0120 -  8    23 28 5D C0 17 70 00 08 
   280)       195.087 1  Rx        0121 -  8    1D 7D 27 FE 56 52 00 08 
   281)       195.301 1  Rx        0122 -  8    00 00 00 07 04 41 01 08 
   282)       195.557 1  Rx        0777 -  8    E7 03 E8 03 98 3A 97 3A 
   283)       195.813 1  Rx        0778 -  8    88 13 E8 03 00 00 00 00 
   284)       196.581 1  Rx        0102 -  8    18 64 0F 0A 13 8D F2 06 
   285)       196.837 1  Rx        0210 -  8    01 00 00 00 00 00 00 00 
   286)       197.733 1  Rx        0210 -  8    01 00 00 00 00 00 00 00 
   287)       199.653 1  Rx        0210 -  8    01 00 00 00 00 00 00 00 
   288)       201.103 1  Rx        0320 -  8    00 00 00 5F 00 00 00 00 
   289)       201.317 1  Rx        0160 -  8    00 00 00 00 00 00 00 00 
   290)       201.573 1  Rx        0161 -  8    00 00 00 00 00 00 00 07 
   291)       203.621 1  Rx        0150 -  8    00 00 47 63 2D 00 00 01 
   292)       203.877 1  Rx        0154 -  8    00 00 02 74 4D 05 42 01 
   293)       204.858 1  Rx        0120 -  8    23 28 5D C0 17 70 00 09 
   294)       205.071 1  Rx        0121 -  8    1D 7C 28 04 56 52 00 09 
   295)       205.327 1  Rx        0122 -  8    00 00 00 07 04 41 01 09 
   296)       205.583 1  Rx        0777 -  8    E7 03 E8 03 98 3A 97 3A 
   297)       205.797 1  Rx        0778 -  8    88 13 E8 03 00 00 00 00 
   298)       206.607 1  Rx        0100 -  8    0E 54 13 88 64 11 00 0B 
   299)       207.461 1  Rx        0210 -  8    01 00 00 00 00 00 00 00 
   300)       208.527 1  Rx        0151 -  8    00 00 10 6C 01 00 00 04 
   301)       208.741 1  Rx        0152 -  8    00 00 08 33 47 01 00 04 
   302)       209.423 1  Rx        0210 -  8    01 00 00 00 00 00 00 00 
   303)       210.490 1  Rx        0210 -  8    01 00 00 00 00 00 00 00 
   304)       211.172 1  Rx        0160 -  8    00 00 00 00 00 00 00 00 
   305)       211.386 1  Rx        0161 -  8    00 00 00 00 00 00 00 08 
   306)       211.898 1  Rx        0188 -  8    40 00 6F 51 08 61 7A 10 
   307)       214.287 1  Rx        0150 -  8    00 00 47 63 2D 00 00 02 
   308)       214.543 1  Rx        0154 -  8    00 00 02 74 4D 05 42 02 
   309)       214.842 1  Rx        0120 -  8    23 28 5D C0 17 6F 00 0A 
   310)       215.055 1  Rx        0121 -  8    1D 72 27 F5 56 52 00 0A 
   311)       215.311 1  Rx        0122 -  8    00 00 00 07 04 41 01 0A 
   312)       215.567 1  Rx        0777 -  8    E7 03 E8 03 98 3A 97 3A 
   313)       215.780 1  Rx        0102 -  8    18 64 0F 0A 13 8D F2 07 
   314)       216.036 1  Rx        0778 -  8    88 13 E8 03 00 00 00 00 
   315)       217.359 1  Rx        0210 -  8    01 00 00 00 00 00 00 00 
   316)       218.127 1  Rx        0210 -  8    01 00 00 00 00 00 00 00 
   317)       219.194 1  Rx        052C -  8    03 41 01 FF 0A 8C 05 6F 
   318)       219.450 1  Rx        052D -  8    04 26 05 EF 08 46 00 1E 
   319)       220.388 1  Rx        0210 -  8    01 00 00 00 00 00 00 00 
   320)       221.156 1  Rx        0160 -  8    00 00 00 00 00 00 00 00 
   321)       221.412 1  Rx        0161 -  8    00 00 00 00 00 00 00 09 
   322)       224.058 1  Rx        0150 -  8    00 00 47 63 2D 00 00 03 
   323)       224.314 1  Rx        0154 -  8    00 00 02 74 4D 05 42 03 
   324)       224.826 1  Rx        0120 -  8    23 28 5D C0 17 6F 00 0B 
   325)       225.082 1  Rx        0121 -  8    1D 76 28 01 56 52 00 0B 
   326)       225.338 1  Rx        0122 -  8    00 00 00 07 04 41 01 0B 
   327)       225.594 1  Rx        0190 -  8    01 00 00 00 00 00 00 00 
   328)       225.807 1  Rx        0777 -  8    E8 03 E8 03 97 3A 98 3A 
   329)       226.063 1  Rx        0778 -  8    88 13 E8 03 00 00 00 00 
   330)       227.087 1  Rx        0210 -  8    01 00 00 00 00 00 00 00 
   331)       227.855 1  Rx        0210 -  8    01 00 00 00 00 00 00 00 
   332)       228.964 1  Rx        052A -  8    10 0C 06 00 00 00 00 00 
   333)       229.220 1  Rx        052B -  8    9F 81 0F 00 00 00 00 00 
   334)       230.159 1  Rx        0210 -  8    01 00 00 00 00 00 00 00 
   335)       231.140 1  Rx        0160 -  8    00 00 00 00 00 00 00 00 
   336)       231.354 1  Rx        0161 -  8    00 00 00 00 00 00 00 0A 
   337)       233.828 1  Rx        0150 -  8    00 00 47 63 2D 00 00 04 
   338)       234.084 1  Rx        0154 -  8    00 00 02 88 4D 05 42 04 
   339)       234.852 1  Rx        0120 -  8    23 28 5D C0 17 6F 00 0C 
   340)       235.065 1  Rx        0121 -  8    1D 6E 27 FE 56 52 00 0C 
   341)       235.321 1  Rx        0122 -  8    00 00 00 07 04 41 01 0C 
   342)       235.577 1  Rx        0102 -  8    18 64 0F 0A 13 8D F2 08 
   343)       235.791 1  Rx        0777 -  8    E8 03 E8 03 98 3A 98 3A 
   344)       236.047 1  Rx        0778 -  8    88 13 E8 03 00 00 00 00 
   345)       236.857 1  Rx        0210 -  8    01 00 00 00 00 00 00 00 
   346)       237.625 1  Rx        0210 -  8    01 00 00 00 00 00 00 00 
   347)       238.735 1  Rx        052E -  8    00 07 00 05 00 00 65 95 
   348)       238.948 1  Rx        0153 -  8    20 00 00 00 09 10 25 07 
   349)       239.929 1  Rx        0210 -  8    01 00 00 00 00 00 00 00 
   350)       241.124 1  Rx        0160 -  8    00 00 00 00 00 00 00 00 
   351)       241.380 1  Rx        0161 -  8    00 00 00 00 00 00 00 0B 
   352)       243.428 1  Rx        0114 -  8    28 28 00 28 5E 80 5E 80 
   353)       243.684 1  Rx        0150 -  8    00 00 47 63 2D 00 00 05 
   354)       243.897 1  Rx        0154 -  8    00 00 02 74 4D 05 42 05 
   355)       244.836 1  Rx        0120 -  8    23 28 5D C0 17 6F 00 0D 
   356)       245.049 1  Rx        0121 -  8    1D 79 27 F8 56 52 00 0D 
   357)       245.305 1  Rx        0122 -  8    00 00 00 07 04 41 01 0D 
   358)       245.561 1  Rx        0115 -  8    D3 D3 00 00 00 00 00 09 
   359)       245.775 1  Rx        0777 -  8    E7 03 E8 03 98 3A 98 3A 
   360)       246.031 1  Rx        0778 -  8    88 13 E8 03 00 00 00 00 
   361)       246.628 1  Rx        0210 -  8    01 00 00 00 00 00 00 00 
   362)       247.396 1  Rx        0210 -  8    01 00 00 00 00 00 00 00 
   363)       249.657 1  Rx        0210 -  8    01 00 00 00 00 00 00 00 
   364)       251.108 1  Rx        0160 -  8    00 00 00 00 00 00 00 00 
   365)       251.364 1  Rx        0161 -  8    00 00 00 00 00 00 00 0C 
   366)       254.436 1  Rx        0150 -  8    00 00 47 63 2D 00 00 06 
   367)       254.649 1  Rx        0154 -  8    00 00 02 88 4D 05 42 06 
   368)       254.905 1  Rx        0120 -  8    23 28 5D C0 17 6F 00 0E 
   369)       255.118 1  Rx        0121 -  8    1D 80 27 FE 56 52 00 0E 
   370)       255.374 1  Rx        0102 -  8    18 64 0F 0A 13 8D F2 09 
   371)       255.588 1  Rx        0122 -  8    00 00 00 07 04 41 01 0E 
   372)       255.844 1  Rx        0777 -  8    E8 03 E8 03 98 3A 98 3A 
   373)       256.057 1  Rx        0778 -  8    88 13 E8 03 00 00 00 00 
   374)       257.166 1  Rx        0210 -  8    01 00 00 00 00 00 00 00 
   375)       258.233 1  Rx        0210 -  8    01 00 00 00 00 00 00 00 
   376)       260.196 1  Rx        0210 -  8    01 00 00 00 00 00 00 00 
   377)       261.092 1  Rx        0160 -  8    00 00 00 00 00 00 00 00 
   378)       261.348 1  Rx        0161 -  8    00 00 00 00 00 00 00 0D 
   379)       264.164 1  Rx        0150 -  8    00 00 47 63 2D 00 00 07 
   380)       264.420 1  Rx        0154 -  8    00 00 02 88 4D 05 42 07 
   381)       264.846 1  Rx        0120 -  8    23 28 5D C0 17 70 00 0F 
   382)       265.102 1  Rx        0121 -  8    1D 80 27 F5 56 52 00 0F 
   383)       265.316 1  Rx        0122 -  8    00 00 00 07 04 41 01 0F 
   384)       265.572 1  Rx        0777 -  8    E8 03 E8 03 98 3A 98 3A 
   385)       265.828 1  Rx        0778 -  8    88 13 E8 03 00 00 00 00 
   386)       266.894 1  Rx        0210 -  8    01 00 00 00 00 00 00 00 
   387)       268.004 1  Rx        0210 -  8    01 00 00 00 00 00 00 00 
   388)       268.516 1  Rx        0116 -  8    2A 34 00 00 00 00 00 05 
   389)       269.924 1  Rx        0210 -  8    01 00 00 00 00 00 00 00 
   390)       271.076 1  Rx        0160 -  8    00 00 00 00 00 00 00 00 
   391)       271.332 1  Rx        0161 -  8    00 00 00 00 00 00 00 0E 
   392)       273.593 1  Rx        0102 -  8    18 64 0F 0A 13 8D F2 0A 
   393)       273.849 1  Rx        0105 -  8    00 00 00 00 00 00 00 05 
   394)       274.062 1  Rx        0150 -  8    00 00 47 63 2D 00 00 08 
   395)       274.318 1  Rx        0154 -  8    00 00 02 88 4D 05 42 08 
   396)       274.830 1  Rx        0120 -  8    23 28 5D C0 17 70 00 00 
   397)       275.086 1  Rx        0121 -  8    1D 6E 27 F2 56 52 00 00 
   398)       275.299 1  Rx        0122 -  8    00 00 00 07 04 41 01 00 
   399)       275.555 1  Rx        0777 -  8    E7 03 E8 03 98 3A 98 3A 
   400)       275.811 1  Rx        0778 -  8    88 13 E8 03 00 00 00 00 
   401)       276.622 1  Rx        0210 -  8    01 00 00 00 00 00 00 00 
   402)       277.731 1  Rx        0210 -  8    01 00 00 00 00 00 00 00 
   403)       279.651 1  Rx        0210 -  8    01 00 00 00 00 00 00 00 
   404)       281.102 1  Rx        0160 -  8    00 00 00 00 00 00 00 00 
   405)       281.315 1  Rx        0161 -  8    00 00 00 00 00 00 00 0F 
   406)       283.619 1  Rx        0150 -  8    00 00 47 63 2D 00 00 09 
   407)       283.875 1  Rx        0154 -  8    00 00 02 88 4D 05 42 09 
   408)       284.942 1  Rx        0120 -  8    23 28 5D C0 17 6F 00 01 
   409)       285.155 1  Rx        0121 -  8    1D 72 27 FB 56 52 00 01 
   410)       285.411 1  Rx        0122 -  8    00 00 00 07 04 41 01 01 
   411)       285.625 1  Rx        0777 -  8    E7 03 E8 03 98 3A 98 3A 
   412)       285.881 1  Rx        0778 -  8    88 13 E8 03 00 00 00 00 
   413)       287.459 1  Rx        0210 -  8    01 00 00 00 00 00 00 00 
   414)       289.379 1  Rx        0210 -  8    01 00 00 00 00 00 00 00 
   415)       290.318 1  Rx        0380 -  8    32 10 16 07 45 48 5C 00 
   416)       290.574 1  Rx        0210 -  8    01 00 00 00 00 00 00 00 
   417)       291.086 1  Rx        0160 -  8    00 00 00 00 00 00 00 00 
   418)       291.342 1  Rx        0161 -  8    00 00 00 00 00 00 00 00 
   419)       292.579 1  Rx        0102 -  8    18 64 0F 0A 13 8D F2 0B 
   420)       294.158 1  Rx        0150 -  8    00 00 47 63 2D 00 00 0A 
   421)       294.371 1  Rx        0154 -  8    00 00 02 74 4D 05 42 0A 
   422)       294.841 1  Rx        0120 -  8    23 28 5D C0 17 6F 00 02 
   423)       295.097 1  Rx        0121 -  8    1D 72 27 FB 56 52 00 02 
   424)       295.353 1  Rx        0122 -  8    00 00 00 07 04 41 01 02 
   425)       295.566 1  Rx        0777 -  8    E7 03 E8 03 98 3A 97 3A 
   426)       295.822 1  Rx        0778 -  8    88 13 E8 03 00 00 00 00 
   427)       297.187 1  Rx        0210 -  8    01 00 00 00 00 00 00 00 
   428)       297.955 1  Rx        0210 -  8    01 00 00 00 00 00 00 00 
   429)       300.216 1  Rx        0210 -  8    01 00 00 00 00 00 00 00 
   430)       301.070 1  Rx        0160 -  8    00 00 00 00 00 00 00 00 
   431)       301.326 1  Rx        0161 -  8    00 00 00 00 00 00 00 01 
   432)       301.582 1  Rx        0320 -  8    00 00 00 5F 00 00 00 00 
   433)       303.886 1  Rx        0150 -  8    00 00 47 63 2D 00 00 0B 
   434)       304.099 1  Rx        0154 -  8    00 00 02 74 4D 05 42 0B 
   435)       304.824 1  Rx        0120 -  8    23 28 5D C0 17 70 00 03 
   436)       305.080 1  Rx        0121 -  8    1D 7B 28 04 56 52 00 03 
   437)       305.294 1  Rx        0122 -  8    00 00 00 07 04 41 01 03 
   438)       305.550 1  Rx        0777 -  8    E7 03 E8 03 98 3A 98 3A 
   439)       305.806 1  Rx        0778 -  8    88 13 E8 03 00 00 00 00 
   440)       306.915 1  Rx        0210 -  8    01 00 00 00 00 00 00 00 
   441)       307.512 1  Rx        0100 -  8    0E 54 13 88 64 11 00 0C 
   442)       307.726 1  Rx        0210 -  8    01 00 00 00 00 00 00 00 
   443)       308.750 1  Rx        0151 -  8    00 00 10 6C 01 00 00 05 
   444)       309.006 1  Rx        0152 -  8    00 00 08 33 47 01 00 05 
   445)       309.987 1  Rx        0210 -  8    01 00 00 00 00 00 00 00 
   446)       311.054 1  Rx        0160 -  8    00 00 00 00 00 00 00 00 
   447)       311.310 1  Rx        0161 -  8    00 00 00 00 00 00 00 02 
   448)       311.864 1  Rx        0188 -  8    40 00 6A 51 08 61 7A 10 
   449)       312.248 1  Rx        0102 -  8    18 64 0F 0A 13 8D F2 0C 
   450)       313.656 1  Rx        0150 -  8    00 00 47 63 2D 00 00 0C 
   451)       313.870 1  Rx        0154 -  8    00 00 02 74 4D 05 42 0C 
   452)       314.851 1  Rx        0120 -  8    23 28 5D C0 17 6F 00 04 
   453)       315.107 1  Rx        0121 -  8    1D 7F 27 F2 56 52 00 04 
   454)       315.320 1  Rx        0122 -  8    00 00 00 07 04 41 01 04 
   455)       315.576 1  Rx        0777 -  8    E7 03 E8 03 98 3A 97 3A 
   456)       315.832 1  Rx        0778 -  8    88 13 E8 03 00 00 00 00 
   457)       316.686 1  Rx        0210 -  8    01 00 00 00 00 00 00 00 
   458)       317.453 1  Rx        0210 -  8    01 00 00 00 00 00 00 00 
   459)       318.520 1  Rx        052C -  8    03 16 02 04 0A 79 05 65 
   460)       318.776 1  Rx        052D -  8    04 17 05 E1 08 22 00 1E 
   461)       319.715 1  Rx        0210 -  8    01 00 00 00 00 00 00 00 
   462)       321.037 1  Rx        0160 -  8    00 00 00 00 00 00 00 00 
   463)       321.293 1  Rx        0161 -  8    00 00 00 00 00 00 00 03 
   464)       324.451 1  Rx        0150 -  8    00 00 47 63 2D 00 00 0D 
   465)       324.707 1  Rx        0154 -  8    00 00 02 74 4D 05 42 0D 
   466)       324.920 1  Rx        0120 -  8    23 28 5D C0 17 6F 00 05 
   467)       325.176 1  Rx        0121 -  8    1D 7F 27 F8 56 52 00 05 
   468)       325.389 1  Rx        0122 -  8    00 00 00 07 04 41 01 05 
   469)       325.645 1  Rx        0190 -  8    01 00 00 00 00 00 00 00 
   470)       325.901 1  Rx        0777 -  8    E7 03 E8 03 97 3A 97 3A 
   471)       326.115 1  Rx        0778 -  8    88 13 E8 03 00 00 00 00 
   472)       326.413 1  Rx        0210 -  8    01 00 00 00 00 00 00 00 
   473)       327.224 1  Rx        0210 -  8    01 00 00 00 00 00 00 00 
   474)       328.291 1  Rx        0210 -  8    01 00 00 00 00 00 00 00 
   475)       329.400 1  Rx        052A -  8    10 0C 06 00 00 00 00 00 
   476)       329.613 1  Rx        052B -  8    9F 81 0F 00 00 00 00 00 
   477)       330.509 1  Rx        0102 -  8    18 64 0F 0A 13 8D F2 0D 
   478)       331.064 1  Rx        0160 -  8    00 00 00 00 00 00 00 00 
   479)       331.277 1  Rx        0161 -  8    00 00 00 00 00 00 00 04 
   480)       334.221 1  Rx        0150 -  8    00 00 47 63 2D 00 00 0E 
   481)       334.477 1  Rx        0154 -  8    00 00 02 74 4D 05 42 0E 
   482)       334.819 1  Rx        0120 -  8    23 28 5D C0 17 70 00 06 
   483)       335.075 1  Rx        0121 -  8    1D 72 27 FB 56 52 00 06 
   484)       335.331 1  Rx        0122 -  8    00 00 00 07 04 41 01 06 
   485)       335.544 1  Rx        0777 -  8    E7 03 E8 03 98 3A 97 3A 
   486)       335.800 1  Rx        0778 -  8    88 13 E8 03 00 00 00 00 
   487)       336.952 1  Rx        0210 -  8    01 00 00 00 00 00 00 00 
   488)       338.019 1  Rx        0210 -  8    01 00 00 00 00 00 00 00 
   489)       339.128 1  Rx        052E -  8    00 07 00 05 00 00 65 95 
   490)       339.341 1  Rx        0153 -  8    20 00 00 00 09 10 25 11 
   491)       340.024 1  Rx        0210 -  8    01 00 00 00 00 00 00 00 
   492)       340.578 1  Rx        0114 -  8    28 28 00 28 5E 80 5E 81 
   493)       341.048 1  Rx        0160 -  8    00 00 00 00 00 00 00 00 
   494)       341.261 1  Rx        0161 -  8    00 00 00 00 00 00 00 05 
   495)       343.437 1  Rx        0115 -  8    D3 D3 00 00 00 00 00 0A 
   496)       343.992 1  Rx        0150 -  8    00 00 47 63 2D 00 00 0F 
   497)       344.248 1  Rx        0154 -  8    00 00 02 74 4D 05 42 0F 
   498)       344.888 1  Rx        0120 -  8    23 28 5D C0 17 70 00 07 
   499)       345.101 1  Rx        0121 -  8    1D 72 27 EE 56 52 00 07 
   500)       345.357 1  Rx        0122 -  8    00 00 00 07 04 41 01 07 
   501)       345.570 1  Rx        0777 -  8    E7 03 E8 03 98 3A 97 3A 
   502)       345.826 1  Rx        0778 -  8    88 13 E8 03 00 00 00 00 
   503)       346.722 1  Rx        0210 -  8    01 00 00 00 00 00 00 00 
   504)       347.789 1  Rx        0210 -  8    01 00 00 00 00 00 00 00 
   505)       349.496 1  Rx        0102 -  8    18 64 0F 0A 13 8D F2 0E 
   506)       349.752 1  Rx        0210 -  8    01 00 00 00 00 00 00 00 
   507)       351.032 1  Rx        0160 -  8    00 00 00 00 00 00 00 00 
   508)       351.245 1  Rx        0161 -  8    00 00 00 00 00 00 00 06 
   509)       353.720 1  Rx        0150 -  8    00 00 47 63 2D 00 00 00 
   510)       353.976 1  Rx        0154 -  8    00 00 02 74 4D 05 42 00 
   511)       354.829 1  Rx        0120 -  8    23 28 5D C0 17 6F 00 08 
   512)       355.042 1  Rx        0121 -  8    1D 72 27 F2 56 52 00 08 
   513)       355.298 1  Rx        0122 -  8    00 00 00 07 04 41 01 08 
   514)       355.512 1  Rx        0777 -  8    E7 03 E8 03 97 3A 97 3A 
   515)       355.768 1  Rx        0778 -  8    88 13 E8 03 00 00 00 00 
   516)       356.450 1  Rx        0210 -  8    01 00 00 00 00 00 00 00 
   517)       357.517 1  Rx        0210 -  8    01 00 00 00 00 00 00 00 
   518)       359.479 1  Rx        0210 -  8    01 00 00 00 00 00 00 00 
   519)       361.015 1  Rx        0160 -  8    00 00 00 00 00 00 00 00 
   520)       361.271 1  Rx        0161 -  8    00 00 00 00 00 00 00 07 
   521)       364.215 1  Rx        0150 -  8    00 00 47 63 2D 00 00 01 
   522)       364.471 1  Rx        0154 -  8    00 00 02 74 4D 05 42 01 
   523)       364.855 1  Rx        0120 -  8    23 28 5D C0 17 70 00 09 
   524)       365.069 1  Rx        0121 -  8    1D 73 28 04 56 52 00 09 
   525)       365.325 1  Rx        0122 -  8    00 00 00 07 04 41 01 09 
   526)       365.538 1  Rx        0777 -  8    E7 03 E8 03 97 3A 97 3A 
   527)       365.794 1  Rx        0778 -  8    88 13 E8 03 00 00 00 00 
   528)       367.245 1  Rx        0210 -  8    01 00 00 00 00 00 00 00 
   529)       368.013 1  Rx        0210 -  8    01 00 00 00 00 00 00 00 
   530)       368.525 1  Rx        0102 -  8    18 64 0F 0A 13 8D F2 0F 
   531)       369.421 1  Rx        0112 -  8    16 10 20 39 10 12 00 0B 
   532)       369.634 1  Rx        0113 -  8    01 45 44 44 00 0D 00 0B 
   533)       369.890 1  Rx        0116 -  8    2A 34 00 00 00 00 00 06 
   534)       370.274 1  Rx        0210 -  8    01 00 00 00 00 00 00 00 
   535)       370.999 1  Rx        0160 -  8    00 00 00 00 00 00 00 00 
   536)       371.255 1  Rx        0161 -  8    00 00 00 00 00 00 00 08 
   537)       373.973 1  Rx        0150 -  8    00 00 47 63 2D 00 00 02 
   538)       374.229 1  Rx        0154 -  8    00 00 02 88 4D 05 42 02 
   539)       374.912 1  Rx        0120 -  8    23 28 5D C0 17 6F 00 0A 
   540)       375.125 1  Rx        0121 -  8    1D 7A 27 F2 56 52 00 0A 
   541)       375.381 1  Rx        0122 -  8    00 00 00 07 04 41 01 0A 
   542)       375.595 1  Rx        0777 -  8    E7 03 E8 03 97 3A 97 3A 
   543)       375.851 1  Rx        0778 -  8    88 13 E8 03 00 00 00 00 
   544)       377.003 1  Rx        0210 -  8    01 00 00 00 00 00 00 00 
   545)       377.771 1  Rx        0210 -  8    01 00 00 00 00 00 00 00 
   546)       380.032 1  Rx        0210 -  8    01 00 00 00 00 00 00 00 
   547)       381.013 1  Rx        0160 -  8    00 00 00 00 00 00 00 00 
   548)       381.269 1  Rx        0161 -  8    00 00 00 00 00 00 00 09 
   549)       383.701 1  Rx        0150 -  8    00 00 47 63 2D 00 00 03 
   550)       383.957 1  Rx        0154 -  8    00 00 02 74 4D 05 42 03 
   551)       384.938 1  Rx        0120 -  8    23 28 5D C0 17 6F 00 0B 
   552)       385.152 1  Rx        0121 -  8    1D 79 28 01 56 52 00 0B 
   553)       385.408 1  Rx        0122 -  8    00 00 00 07 04 41 01 0B 
   554)       385.621 1  Rx        0777 -  8    E7 03 E8 03 97 3A 97 3A 
   555)       385.877 1  Rx        0778 -  8    88 13 E8 03 00 00 00 00 
   556)       386.730 1  Rx        0210 -  8    01 00 00 00 00 00 00 00 
   557)       387.498 1  Rx        0210 -  8    01 00 00 00 00 00 00 00 
   558)       387.754 1  Rx        0102 -  8    18 64 0F 0A 13 8D F2 00 
   559)       389.760 1  Rx        0210 -  8    01 00 00 00 00 00 00 00 
   560)       390.314 1  Rx        0380 -  8    33 10 16 08 44 48 5C 01 
   561)       390.997 1  Rx        0160 -  8    00 00 00 00 00 00 00 00 
   562)       391.253 1  Rx        0161 -  8    00 00 00 00 00 00 00 0A 
   563)       394.538 1  Rx        0150 -  8    00 00 47 63 2D 00 00 04 
   564)       394.752 1  Rx        0154 -  8    00 00 02 74 4D 05 42 04 
   565)       395.008 1  Rx        0120 -  8    23 28 5D C0 17 70 00 0C 
   566)       395.221 1  Rx        0121 -  8    1D 77 28 01 56 52 00 0C 
   567)       395.477 1  Rx        0122 -  8    00 00 00 07 04 41 01 0C 
   568)       395.690 1  Rx        0777 -  8    E7 03 E8 03 98 3A 97 3A 
   569)       395.946 1  Rx        0778 -  8    88 13 E8 03 00 00 00 00 
   570)       396.458 1  Rx        0210 -  8    01 00 00 00 00 00 00 00 
   571)       397.269 1  Rx        0210 -  8    01 00 00 00 00 00 00 00 
   572)       398.336 1  Rx        0210 -  8    01 00 00 00 00 00 00 00 
   573)       400.981 1  Rx        0160 -  8    00 00 00 00 00 00 00 00 
   574)       401.237 1  Rx        0161 -  8    00 00 00 00 00 00 00 0B 
   575)       401.493 1  Rx        0320 -  8    00 00 00 5F 00 00 00 00 
   576)       404.223 1  Rx        0150 -  8    00 00 47 63 2D 00 00 05 
   577)       404.479 1  Rx        0154 -  8    00 00 02 88 4D 05 42 05 
   578)       404.906 1  Rx        0120 -  8    23 28 5D C0 17 70 00 0D 
   579)       405.119 1  Rx        0121 -  8    1D 72 27 F5 56 52 00 0D 
   580)       405.375 1  Rx        0122 -  8    00 00 00 07 04 41 01 0D 
   581)       405.589 1  Rx        0777 -  8    E7 03 E8 03 98 3A 98 3A 
   582)       405.845 1  Rx        0778 -  8    88 13 E8 03 00 00 00 00 
   583)       406.570 1  Rx        0102 -  8    18 64 0F 0A 13 8D F2 01 
   584)       406.954 1  Rx        0210 -  8    01 00 00 00 00 00 00 00 
   585)       407.466 1  Rx        0100 -  8    0E 54 13 88 64 11 00 0D 
   586)       408.063 1  Rx        0210 -  8    01 00 00 00 00 00 00 00 
   587)       409.130 1  Rx        0151 -  8    00 00 10 6C 01 00 00 06 
   588)       409.343 1  Rx        0152 -  8    00 00 08 33 47 01 00 06 
   589)       410.026 1  Rx        0210 -  8    01 00 00 00 00 00 00 00 
   590)       411.007 1  Rx        0160 -  8    00 00 00 00 00 00 00 00 
   591)       411.221 1  Rx        0161 -  8    00 00 00 00 00 00 00 0C 
   592)       411.989 1  Rx        0188 -  8    40 00 6A 51 08 61 7A 10 
   593)       414.122 1  Rx        0150 -  8    00 00 47 63 2D 00 00 06 
   594)       414.378 1  Rx        0154 -  8    00 00 02 74 4D 05 42 06 
   595)       414.890 1  Rx        0120 -  8    23 28 5D C0 17 70 00 0E 
   596)       415.146 1  Rx        0121 -  8    1D 6C 28 01 56 52 00 0E 
   597)       415.402 1  Rx        0122 -  8    00 00 00 07 04 41 01 0E 
   598)       415.615 1  Rx        0777 -  8    E8 03 E8 03 98 3A 98 3A 
   599)       415.871 1  Rx        0778 -  8    88 13 E8 03 00 00 00 00 
   600)       416.853 1  Rx        0210 -  8    01 00 00 00 00 00 00 00 
   601)       417.962 1  Rx        0210 -  8    01 00 00 00 00 00 00 00 
   602)       419.029 1  Rx        052C -  8    03 3A 01 FF 0A 88 05 74 
   603)       419.242 1  Rx        052D -  8    04 2F 05 F3 08 46 00 1E 
   604)       419.925 1  Rx        0210 -  8    01 00 00 00 00 00 00 00 
   605)       420.991 1  Rx        0160 -  8    00 00 00 00 00 00 00 00 
   606)       421.247 1  Rx        0161 -  8    00 00 00 00 00 00 00 0D 
   607)       423.892 1  Rx        0150 -  8    00 00 47 63 2D 00 00 07 
   608)       424.106 1  Rx        0154 -  8    00 00 02 74 4D 05 42 07 
   609)       424.874 1  Rx        0120 -  8    23 28 5D C0 17 70 00 0F 
   610)       425.087 1  Rx        0121 -  8    1D 71 28 07 56 52 00 0F 
   611)       425.343 1  Rx        0122 -  8    00 00 00 07 04 41 01 0F 
   612)       425.599 1  Rx        0102 -  8    18 64 0F 0A 13 8D F2 02 
   613)       425.855 1  Rx        0190 -  8    01 00 00 00 00 00 00 00 
   614)       426.068 1  Rx        0777 -  8    E8 03 E8 03 98 3A 98 3A 
   615)       426.324 1  Rx        0778 -  8    88 13 E8 03 00 00 00 00 
   616)       426.623 1  Rx        0210 -  8    01 00 00 00 00 00 00 00 
   617)       427.690 1  Rx        0210 -  8    01 00 00 00 00 00 00 00 
   618)       428.799 1  Rx        052A -  8    10 0C 06 00 00 00 00 00 
   619)       429.055 1  Rx        052B -  8    9F 81 0F 00 00 00 00 00 
   620)       429.652 1  Rx        0210 -  8    01 00 00 00 00 00 00 00 
   621)       430.975 1  Rx        0160 -  8    00 00 00 00 00 00 00 00 
   622)       431.231 1  Rx        0161 -  8    00 00 00 00 00 00 00 0E 
   623)       433.620 1  Rx        0150 -  8    00 00 47 63 2D 00 00 08 
   624)       433.876 1  Rx        0154 -  8    00 00 02 88 4D 05 42 08 
   625)       434.900 1  Rx        0120 -  8    23 28 5D C0 17 6F 00 00 
   626)       435.114 1  Rx        0121 -  8    1D 7F 27 F2 56 52 00 00 
   627)       435.370 1  Rx        0122 -  8    00 00 00 07 04 41 01 00 
   628)       435.626 1  Rx        0777 -  8    E7 03 E8 03 98 3A 98 3A 
   629)       435.839 1  Rx        0778 -  8    88 13 E8 03 00 00 00 00 
   630)       437.418 1  Rx        0210 -  8    01 00 00 00 00 00 00 00 
   631)       438.228 1  Rx        0210 -  8    01 00 00 00 00 00 00 00 
   632)       438.442 1  Rx        0114 -  8    28 28 00 28 5E 80 5E 82 
   633)       439.295 1  Rx        052E -  8    00 07 00 05 00 00 65 95 
   634)       439.551 1  Rx        0153 -  8    20 00 00 00 09 10 25 0B 
   635)       440.490 1  Rx        0210 -  8    01 00 00 00 00 00 00 00 
   636)       440.959 1  Rx        0160 -  8    00 00 00 00 00 00 00 00 
   637)       441.215 1  Rx        0161 -  8    00 00 00 00 00 00 00 0F 
   638)       442.495 1  Rx        0115 -  8    D3 D3 00 00 00 00 00 0B 
   639)       444.159 1  Rx        0150 -  8    00 00 47 63 2D 00 00 09 
   640)       444.415 1  Rx        0154 -  8    00 00 02 74 4D 05 42 09 
   641)       444.884 1  Rx        0120 -  8    23 28 5D C0 17 6F 00 01 
   642)       445.097 1  Rx        0121 -  8    1D 73 27 FE 56 52 00 01 
   643)       445.353 1  Rx        0122 -  8    00 00 00 07 04 41 01 01 
   644)       445.567 1  Rx        0102 -  8    18 64 0F 0A 13 8D F2 03 
   645)       445.823 1  Rx        0777 -  8    E7 03 E8 03 98 3A 98 3A 
   646)       446.036 1  Rx        0778 -  8    88 13 E8 03 00 00 00 00 
   647)       447.188 1  Rx        0210 -  8    01 00 00 00 00 00 00 00 
   648)       447.999 1  Rx        0210 -  8    01 00 00 00 00 00 00 00 
   649)       450.217 1  Rx        0210 -  8    01 00 00 00 00 00 00 00 
   650)       450.943 1  Rx        0160 -  8    00 00 00 00 00 00 00 00 
   651)       451.199 1  Rx        0161 -  8    00 00 00 00 00 00 00 00 
   652)       453.887 1  Rx        0150 -  8    00 00 47 63 2D 00 00 0A 
   653)       454.143 1  Rx        0154 -  8    00 00 02 88 4D 05 42 0A 
   654)       454.953 1  Rx        0120 -  8    23 28 5D C0 17 6F 00 02 
   655)       455.167 1  Rx        0121 -  8    1D 6D 27 F2 56 52 00 02 
   656)       455.423 1  Rx        0122 -  8    00 00 00 07 04 41 01 02 
   657)       455.636 1  Rx        0777 -  8    E7 03 E8 03 97 3A 97 3A 
   658)       455.892 1  Rx        0778 -  8    88 13 E8 03 00 00 00 00 
   659)       456.916 1  Rx        0210 -  8    01 00 00 00 00 00 00 00 
   660)       457.684 1  Rx        0210 -  8    01 00 00 00 00 00 00 00 
   661)       459.945 1  Rx        0210 -  8    01 00 00 00 00 00 00 00 
   662)       460.969 1  Rx        0160 -  8    00 00 00 00 00 00 00 00 
   663)       461.183 1  Rx        0161 -  8    00 00 00 00 00 00 00 01 
   664)       463.615 1  Rx        0150 -  8    00 00 47 63 2D 00 00 0B 
   665)       463.871 1  Rx        0154 -  8    00 00 02 88 4D 05 42 0B 
   666)       464.895 1  Rx        0120 -  8    23 28 5D C0 17 70 00 03 
   667)       465.108 1  Rx        0121 -  8    1D 6F 28 01 56 52 00 03 
   668)       465.364 1  Rx        0102 -  8    18 64 0F 0A 13 8D F2 04 
   669)       465.620 1  Rx        0122 -  8    00 00 00 07 04 41 01 03 
   670)       465.833 1  Rx        0777 -  8    E7 03 E8 03 97 3A 97 3A 
   671)       466.089 1  Rx        0778 -  8    88 13 E8 03 00 00 00 00 
   672)       466.644 1  Rx        0210 -  8    01 00 00 00 00 00 00 00 
   673)       467.412 1  Rx        0210 -  8    01 00 00 00 00 00 00 00 
   674)       468.521 1  Rx        0210 -  8    01 00 00 00 00 00 00 00 
   675)       470.910 1  Rx        0160 -  8    00 00 00 00 00 00 00 00 
   676)       471.166 1  Rx        0161 -  8    00 00 00 00 00 00 00 02 
   677)       471.593 1  Rx        0116 -  8    2A 34 00 00 00 00 00 07 
   678)       474.409 1  Rx        0150 -  8    00 00 47 63 2D 00 00 0C 
   679)       474.665 1  Rx        0154 -  8    00 00 02 88 4D 05 42 0C 
   680)       474.878 1  Rx        0120 -  8    23 28 5D C0 17 6F 00 04 
   681)       475.134 1  Rx        0121 -  8    1D 7A 27 EB 56 52 00 04 
   682)       475.348 1  Rx        0122 -  8    00 00 00 07 04 41 01 04 
   683)       475.604 1  Rx        0777 -  8    E7 03 E8 03 97 3A 97 3A 
   684)       475.817 1  Rx        0778 -  8    88 13 E8 03 00 00 00 00 
   685)       477.140 1  Rx        0210 -  8    01 00 00 00 00 00 00 00 
   686)       478.249 1  Rx        0210 -  8    01 00 00 00 00 00 00 00 
   687)       480.212 1  Rx        0210 -  8    01 00 00 00 00 00 00 00 
   688)       480.937 1  Rx        0160 -  8    00 00 00 00 00 00 00 00 
   689)       481.150 1  Rx        0161 -  8    00 00 00 00 00 00 00 03 
   690)       483.369 1  Rx        0102 -  8    18 64 0F 0A 13 8D F2 05 
   691)       484.180 1  Rx        0150 -  8    00 00 47 63 2D 00 00 0D 
   692)       484.393 1  Rx        0154 -  8    00 00 02 74 4D 05 42 0D 
   693)       484.948 1  Rx        0120 -  8    23 28 5D C0 17 70 00 05 
   694)       485.204 1  Rx        0121 -  8    1D 80 28 04 56 52 00 05 
   695)       485.417 1  Rx        0122 -  8    00 00 00 07 04 41 01 05 
   696)       485.673 1  Rx        0777 -  8    E8 03 E8 03 97 3A 97 3A 
   697)       485.886 1  Rx        0778 -  8    88 13 E8 03 00 00 00 00 
   698)       486.910 1  Rx        0210 -  8    01 00 00 00 00 00 00 00 
   699)       487.977 1  Rx        0210 -  8    01 00 00 00 00 00 00 00 
   700)       489.939 1  Rx        0210 -  8    01 00 00 00 00 00 00 00 
   701)       490.238 1  Rx        0380 -  8    34 10 15 09 44 48 5C 02 
   702)       490.921 1  Rx        0160 -  8    00 00 00 00 00 00 00 00 
   703)       491.177 1  Rx        0161 -  8    00 00 00 00 00 00 00 04 
   704)       493.907 1  Rx        0150 -  8    00 00 47 63 2D 00 00 0E 
   705)       494.121 1  Rx        0154 -  8    00 00 02 88 4D 05 42 0E 
   706)       494.889 1  Rx        0120 -  8    23 28 5D C0 17 70 00 06 
   707)       495.102 1  Rx        0121 -  8    1D 7B 27 F8 56 52 00 06 
   708)       495.358 1  Rx        0122 -  8    00 00 00 07 04 41 01 06 
   709)       495.571 1  Rx        0777 -  8    E7 03 E8 03 97 3A 97 3A 
   710)       495.827 1  Rx        0778 -  8    88 13 E8 03 00 00 00 00 
   711)       496.638 1  Rx        0210 -  8    01 00 00 00 00 00 00 00 
   712)       497.705 1  Rx        0210 -  8    01 00 00 00 00 00 00 00 
   713)       499.667 1  Rx        0210 -  8    01 00 00 00 00 00 00 00 
   714)       500.905 1  Rx        0160 -  8    00 00 00 00 00 00 00 00 
   715)       501.161 1  Rx        0161 -  8    00 00 00 00 00 00 00 05 
   716)       501.459 1  Rx        0320 -  8    00 00 00 5F 00 00 00 00 
   717)       502.483 1  Rx        0102 -  8    18 64 0F 0A 13 8D F2 06 
   718)       503.635 1  Rx        0150 -  8    00 00 47 63 2D 00 00 0F 
   719)       503.849 1  Rx        0154 -  8    00 00 02 88 4D 05 42 0F 
   720)       504.873 1  Rx        0120 -  8    23 28 5D C0 17 70 00 07 
   721)       505.129 1  Rx        0121 -  8    1D 6B 27 FE 56 52 00 07 
   722)       505.342 1  Rx        0122 -  8    00 00 00 07 04 41 01 07 
   723)       505.598 1  Rx        0777 -  8    E7 03 E8 03 97 3A 97 3A 
   724)       505.811 1  Rx        0778 -  8    88 13 E8 03 00 00 00 00 
   725)       507.433 1  Rx        0210 -  8    01 00 00 00 00 00 00 00 
   726)       508.201 1  Rx        0210 -  8    01 00 00 00 00 00 00 00 
   727)       508.542 1  Rx        0100 -  8    0E 54 13 88 64 11 00 0E 
   728)       509.267 1  Rx        0151 -  8    00 00 10 6C 01 00 00 07 
   729)       509.523 1  Rx        0152 -  8    00 00 08 33 47 01 00 07 
   730)       510.462 1  Rx        0210 -  8    01 00 00 00 00 00 00 00 
   731)       510.888 1  Rx        0160 -  8    00 00 00 00 00 00 00 00 
   732)       511.144 1  Rx        0161 -  8    00 00 00 00 00 00 00 06 
   733)       512.040 1  Rx        0188 -  8    40 00 6A 51 08 61 7A 10 
   734)       514.131 1  Rx        0150 -  8    00 00 47 63 2D 00 00 00 
   735)       514.387 1  Rx        0154 -  8    00 00 02 88 4D 05 42 00 
   736)       514.643 1  Rx        0330 -  8    00 80 00 00 00 00 00 00 
   737)       514.899 1  Rx        0120 -  8    23 28 5D C0 17 70 00 08 
   738)       515.112 1  Rx        0121 -  8    1D 70 27 F2 56 52 00 08 
   739)       515.368 1  Rx        0122 -  8    00 00 00 07 04 41 01 08 
   740)       515.582 1  Rx        0777 -  8    E8 03 E8 03 97 3A 98 3A 
   741)       515.838 1  Rx        0778 -  8    88 13 E8 03 00 00 00 00 
   742)       517.160 1  Rx        0210 -  8    01 00 00 00 00 00 00 00 
   743)       517.971 1  Rx        0210 -  8    01 00 00 00 00 00 00 00 
   744)       519.038 1  Rx        052C -  8    03 35 02 09 0A 7C 05 82 
   745)       519.294 1  Rx        052D -  8    04 15 06 01 08 37 00 1E 
   746)       520.232 1  Rx        0210 -  8    01 00 00 00 00 00 00 00 
   747)       520.872 1  Rx        0160 -  8    00 00 00 00 00 00 00 00 
   748)       521.128 1  Rx        0161 -  8    00 00 00 00 00 00 00 07 
   749)       521.470 1  Rx        0102 -  8    18 64 0F 0A 13 8D F2 07 
   750)       523.902 1  Rx        0150 -  8    00 00 47 63 2D 00 00 01 
   751)       524.158 1  Rx        0154 -  8    00 00 02 88 4D 05 42 01 
   752)       524.883 1  Rx        0120 -  8    23 28 5D C0 17 70 00 09 
   753)       525.139 1  Rx        0121 -  8    1D 7D 28 04 56 52 00 09 
   754)       525.352 1  Rx        0122 -  8    00 00 00 07 04 41 01 09 
   755)       525.608 1  Rx        0190 -  8    01 00 00 00 00 00 00 00 
   756)       525.864 1  Rx        0777 -  8    E8 03 E8 03 98 3A 98 3A 
   757)       526.078 1  Rx        0778 -  8    88 13 E8 03 00 00 00 00 
   758)       526.931 1  Rx        0210 -  8    01 00 00 00 00 00 00 00 
   759)       527.699 1  Rx        0210 -  8    01 00 00 00 00 00 00 00 
   760)       528.808 1  Rx        052A -  8    10 0C 06 00 00 00 00 00 
   761)       529.064 1  Rx        052B -  8    9F 81 0F 00 00 00 00 00 
   762)       530.003 1  Rx        0210 -  8    01 00 00 00 00 00 00 00 
   763)       530.856 1  Rx        0160 -  8    00 00 00 00 00 00 00 00 
   764)       531.112 1  Rx        0161 -  8    00 00 00 00 00 00 00 08 
   765)       533.629 1  Rx        0150 -  8    00 00 47 63 2D 00 00 02 
   766)       533.885 1  Rx        0154 -  8    00 00 02 88 4D 05 42 02 
   767)       534.867 1  Rx        0120 -  8    23 28 5D C0 17 6F 00 0A 
   768)       535.123 1  Rx        0121 -  8    1D 7F 27 F5 56 52 00 0A 
   769)       535.336 1  Rx        0122 -  8    00 00 00 07 04 41 01 0A 
   770)       535.592 1  Rx        0114 -  8    28 28 00 28 5E 80 5E 83 
   771)       535.805 1  Rx        0777 -  8    E8 03 E8 03 98 3A 98 3A 
   772)       536.061 1  Rx        0778 -  8    88 13 E8 03 00 00 00 00 
   773)       536.659 1  Rx        0210 -  8    01 00 00 00 00 00 00 00 
   774)       537.469 1  Rx        0210 -  8    01 00 00 00 00 00 00 00 
   775)       538.536 1  Rx        0210 -  8    01 00 00 00 00 00 00 00 
   776)       539.603 1  Rx        052E -  8    00 07 00 05 00 00 65 95 
   777)       539.859 1  Rx        0153 -  8    20 00 00 00 09 10 25 05 
   778)       540.413 1  Rx        0102 -  8    18 64 0F 0A 13 8D F2 08 
   779)       540.669 1  Rx        0115 -  8    D3 D3 00 00 00 00 00 0C 
   780)       540.925 1  Rx        0160 -  8    00 00 00 00 00 00 00 00 
   781)       541.181 1  Rx        0161 -  8    00 00 00 00 00 00 00 09 
   782)       544.509 1  Rx        0150 -  8    00 00 47 63 2D 00 00 03 
   783)       544.723 1  Rx        0154 -  8    00 00 02 88 4D 05 42 03 
   784)       544.979 1  Rx        0120 -  8    23 28 5D C0 17 70 00 0B 
   785)       545.192 1  Rx        0121 -  8    1D 79 28 07 56 52 00 0B 
   786)       545.448 1  Rx        0122 -  8    00 00 00 07 04 41 01 0B 
   787)       545.661 1  Rx        0777 -  8    E8 03 E8 03 98 3A 98 3A 
   788)       545.917 1  Rx        0778 -  8    88 13 E8 03 00 00 00 00 
   789)       546.472 1  Rx        0210 -  8    01 00 00 00 00 00 00 00 
   790)       547.240 1  Rx        0210 -  8    01 00 00 00 00 00 00 00 
   791)       548.307 1  Rx        0210 -  8    01 00 00 00 00 00 00 00 
   792)       550.867 1  Rx        0160 -  8    00 00 00 00 00 00 00 00 
   793)       551.123 1  Rx        0161 -  8    00 00 00 00 00 00 00 0A 
   794)       554.237 1  Rx        0150 -  8    00 00 47 63 2D 00 00 04 
   795)       554.450 1  Rx        0154 -  8    00 00 02 88 4D 05 42 04 
   796)       554.920 1  Rx        0120 -  8    23 28 5D C0 17 6F 00 0C 
   797)       555.176 1  Rx        0121 -  8    1D 7F 27 FE 56 52 00 0C 
   798)       555.389 1  Rx        0122 -  8    00 00 00 07 04 41 01 0C 
   799)       555.645 1  Rx        0777 -  8    E8 03 E8 03 98 3A 98 3A 
   800)       555.901 1  Rx        0778 -  8    88 13 E8 03 00 00 00 00 
   801)       556.968 1  Rx        0210 -  8    01 00 00 00 00 00 00 00 
   802)       558.034 1  Rx        0210 -  8    01 00 00 00 00 00 00 00 
   803)       559.400 1  Rx        0102 -  8    18 64 0F 0A 13 8D F2 09 
   804)       559.997 1  Rx        0210 -  8    01 00 00 00 00 00 00 00 
   805)       560.850 1  Rx        0160 -  8    00 00 00 00 00 00 00 00 
   806)       561.106 1  Rx        0161 -  8    00 00 00 00 00 00 00 0B 
   807)       563.965 1  Rx        0150 -  8    00 00 47 63 2D 00 00 05 
   808)       564.178 1  Rx        0154 -  8    00 00 02 74 4D 05 42 05 
   809)       564.861 1  Rx        0120 -  8    23 28 5D C0 17 6F 00 0D 
   810)       565.117 1  Rx        0121 -  8    1D 80 27 EE 56 52 00 0D 
   811)       565.330 1  Rx        0122 -  8    00 00 00 07 04 41 01 0D 
   812)       565.586 1  Rx        0777 -  8    E7 03 E8 03 98 3A 98 3A 
   813)       565.800 1  Rx        0778 -  8    88 13 E8 03 00 00 00 00 
   814)       566.696 1  Rx        0210 -  8    01 00 00 00 00 00 00 00 
   815)       567.762 1  Rx        0210 -  8    01 00 00 00 00 00 00 00 
   816)       569.725 1  Rx        0210 -  8    01 00 00 00 00 00 00 00 
   817)       570.834 1  Rx        0160 -  8    00 00 00 00 00 00 00 00 
   818)       571.090 1  Rx        0161 -  8    00 00 00 00 00 00 00 0C 
   819)       572.541 1  Rx        0112 -  8    16 10 20 39 10 12 00 0C 
   820)       572.797 1  Rx        0113 -  8    01 45 44 44 00 0D 00 0C 
   821)       573.053 1  Rx        0116 -  8    2A 34 00 00 00 00 00 08 
   822)       573.693 1  Rx        0150 -  8    00 00 47 63 2D 00 00 06 
   823)       573.906 1  Rx        0154 -  8    00 00 02 74 4D 05 42 06 
   824)       574.887 1  Rx        0120 -  8    23 28 5D C0 17 70 00 0E 
   825)       575.143 1  Rx        0121 -  8    1D 6D 27 F5 56 52 00 0E 
   826)       575.357 1  Rx        0122 -  8    00 00 00 07 04 41 01 0E 
   827)       575.613 1  Rx        0777 -  8    E7 03 E8 03 98 3A 98 3A 
   828)       575.826 1  Rx        0778 -  8    88 13 E8 03 00 00 00 00 
   829)       577.490 1  Rx        0210 -  8    01 00 00 00 00 00 00 00 
   830)       578.258 1  Rx        0210 -  8    01 00 00 00 00 00 00 00 
   831)       578.514 1  Rx        0102 -  8    18 64 0F 0A 13 8D F2 0A 
   832)       580.519 1  Rx        0210 -  8    01 00 00 00 00 00 00 00 
   833)       580.818 1  Rx        0160 -  8    00 00 00 00 00 00 00 00 
   834)       581.074 1  Rx        0161 -  8    00 00 00 00 00 00 00 0D 
   835)       584.189 1  Rx        0150 -  8    00 00 47 63 2D 00 00 07 
   836)       584.402 1  Rx        0154 -  8    00 00 02 74 4D 05 42 07 
   837)       584.914 1  Rx        0120 -  8    23 28 5D C0 17 6F 00 0F 
   838)       585.170 1  Rx        0121 -  8    1D 73 27 FB 56 52 00 0F 
   839)       585.383 1  Rx        0122 -  8    00 00 00 07 04 41 01 0F 
   840)       585.639 1  Rx        0777 -  8    E7 03 E8 03 98 3A 97 3A 
   841)       585.853 1  Rx        0778 -  8    88 13 E8 03 00 00 00 00 
   842)       587.218 1  Rx        0210 -  8    01 00 00 00 00 00 00 00 
   843)       587.986 1  Rx        0210 -  8    01 00 00 00 00 00 00 00 
   844)       590.205 1  Rx        0380 -  8    35 10 13 01 45 48 5C 03 
   845)       590.461 1  Rx        0210 -  8    01 00 00 00 00 00 00 00 
   846)       590.802 1  Rx        0160 -  8    00 00 00 00 00 00 00 00 
   847)       591.058 1  Rx        0161 -  8    00 00 00 00 00 00 00 0E 
   848)       593.917 1  Rx        0150 -  8    00 00 47 63 2D 00 00 08 
   849)       594.130 1  Rx        0154 -  8    00 00 02 74 4D 05 42 08 
   850)       594.855 1  Rx        0120 -  8    23 28 5D C0 17 6F 00 00 
   851)       595.111 1  Rx        0121 -  8    1D 72 27 FE 56 52 00 00 
   852)       595.367 1  Rx        0122 -  8    00 00 00 07 04 41 01 00 
   853)       595.580 1  Rx        0777 -  8    E7 03 E8 03 97 3A 97 3A 
   854)       595.836 1  Rx        0778 -  8    88 13 E8 03 00 00 00 00 
   855)       596.946 1  Rx        0210 -  8    01 00 00 00 00 00 00 00 
   856)       597.372 1  Rx        0102 -  8    18 64 0F 0A 13 8D F2 0B 
   857)       597.714 1  Rx        0210 -  8    01 00 00 00 00 00 00 00 
   858)       599.975 1  Rx        0210 -  8    01 00 00 00 00 00 00 00 
   859)       600.828 1  Rx        0160 -  8    00 00 00 00 00 00 00 00 
   860)       601.042 1  Rx        0161 -  8    00 00 00 00 00 00 00 0F 
   861)       601.511 1  Rx        0320 -  8    00 00 00 5F 00 00 00 00 
   862)       604.711 1  Rx        0150 -  8    00 00 47 63 2D 00 00 09 
   863)       604.967 1  Rx        0120 -  8    23 28 5D C0 17 6F 00 01 
   864)       605.180 1  Rx        0121 -  8    1D 78 27 F2 56 52 00 01 
   865)       605.436 1  Rx        0122 -  8    00 00 00 07 04 41 01 01 
   866)       605.692 1  Rx        0154 -  8    00 00 02 74 4D 05 42 09 
   867)       605.906 1  Rx        0777 -  8    E7 03 E8 03 97 3A 97 3A 
   868)       606.162 1  Rx        0778 -  8    88 13 E8 03 00 00 00 00 
   869)       606.674 1  Rx        0210 -  8    01 00 00 00 00 00 00 00 
   870)       607.442 1  Rx        0210 -  8    01 00 00 00 00 00 00 00 
   871)       608.466 1  Rx        0100 -  8    0E 54 13 88 64 11 00 0F 
   872)       608.679 1  Rx        0210 -  8    01 00 00 00 00 00 00 00 
   873)       609.618 1  Rx        0151 -  8    00 00 10 6C 01 00 00 08 
   874)       609.874 1  Rx        0152 -  8    00 00 08 33 47 01 00 08 
   875)       610.812 1  Rx        0160 -  8    00 00 00 00 00 00 00 00 
   876)       611.068 1  Rx        0161 -  8    00 00 00 00 00 00 00 00 
   877)       611.879 1  Rx        0188 -  8    40 00 6A 51 08 61 7A 10 
   878)       614.652 1  Rx        0150 -  8    00 00 47 63 2D 00 00 0A 
   879)       614.866 1  Rx        0120 -  8    23 28 5D C0 17 70 00 02 
   880)       615.122 1  Rx        0121 -  8    1D 7F 27 F2 56 52 00 02 
   881)       615.335 1  Rx        0122 -  8    00 00 00 07 04 41 01 02 
   882)       615.591 1  Rx        0154 -  8    00 00 02 74 4D 05 42 0A 
   883)       615.804 1  Rx        0777 -  8    E7 03 E8 03 97 3A 97 3A 
   884)       616.060 1  Rx        0778 -  8    88 13 E8 03 00 00 00 00 
   885)       616.444 1  Rx        0102 -  8    18 64 0F 0A 13 8D F2 0C 
   886)       616.657 1  Rx        0210 -  8    01 00 00 00 00 00 00 00 
   887)       617.383 1  Rx        0210 -  8    01 00 00 00 00 00 00 00 
   888)       618.449 1  Rx        0210 -  8    01 00 00 00 00 00 00 00 
   889)       619.559 1  Rx        052C -  8    03 27 01 F8 0A 70 05 68 
   890)       619.772 1  Rx        052D -  8    04 12 05 E9 07 FE 00 1E 
   891)       620.796 1  Rx        0160 -  8    00 00 00 00 00 00 00 00 
   892)       621.052 1  Rx        0161 -  8    00 00 00 00 00 00 00 01 
   893)       624.380 1  Rx        0150 -  8    00 00 47 63 2D 00 00 0B 
   894)       624.636 1  Rx        0154 -  8    00 00 02 74 4D 05 42 0B 
   895)       624.892 1  Rx        0120 -  8    23 28 5D C0 17 70 00 03 
   896)       625.105 1  Rx        0121 -  8    1D 7B 28 07 56 52 00 03 
   897)       625.361 1  Rx        0122 -  8    00 00 00 07 04 41 01 03 
   898)       625.617 1  Rx        0190 -  8    01 00 00 00 00 00 00 00 
   899)       625.831 1  Rx        0777 -  8    E7 03 E8 03 97 3A 97 3A 
   900)       626.087 1  Rx        0778 -  8    88 13 E8 03 00 00 00 00 
   901)       627.111 1  Rx        0210 -  8    01 00 00 00 00 00 00 00 
   902)       628.220 1  Rx        0210 -  8    01 00 00 00 00 00 00 00 
   903)       629.287 1  Rx        052A -  8    10 0C 06 00 00 00 00 00 
   904)       629.543 1  Rx        052B -  8    9F 81 0F 00 00 00 00 00 
   905)       630.183 1  Rx        0210 -  8    01 00 00 00 00 00 00 00 
   906)       630.780 1  Rx        0160 -  8    00 00 00 00 00 00 00 00 
   907)       631.036 1  Rx        0161 -  8    00 00 00 00 00 00 00 02 
   908)       633.468 1  Rx        0114 -  8    28 28 00 28 5E 80 5E 84 
   909)       634.151 1  Rx        0150 -  8    00 00 47 63 2D 00 00 0C 
   910)       634.364 1  Rx        0154 -  8    00 00 02 74 4D 05 42 0C 
   911)       634.919 1  Rx        0120 -  8    23 28 5D C0 17 70 00 04 
   912)       635.132 1  Rx        0121 -  8    1D 6D 27 FB 56 52 00 04 
   913)       635.388 1  Rx        0122 -  8    00 00 00 07 04 41 01 04 
   914)       635.601 1  Rx        0777 -  8    E7 03 E8 03 98 3A 98 3A 
   915)       635.857 1  Rx        0778 -  8    88 13 E8 03 00 00 00 00 
   916)       636.412 1  Rx        0102 -  8    18 64 0F 0A 13 8D F2 0D 
   917)       636.881 1  Rx        0210 -  8    01 00 00 00 00 00 00 00 
   918)       637.948 1  Rx        0210 -  8    01 00 00 00 00 00 00 00 
   919)       639.057 1  Rx        052E -  8    00 07 00 05 00 00 65 95 
   920)       639.270 1  Rx        0153 -  8    20 00 00 00 09 10 25 0F 
   921)       639.612 1  Rx        0115 -  8    D3 D3 00 00 00 00 00 0D 
   922)       639.910 1  Rx        0210 -  8    01 00 00 00 00 00 00 00 
   923)       640.764 1  Rx        0160 -  8    00 00 00 00 00 00 00 00 
   924)       641.020 1  Rx        0161 -  8    00 00 00 00 00 00 00 03 
   925)       643.921 1  Rx        0150 -  8    00 00 47 63 2D 00 00 0D 
   926)       644.134 1  Rx        0154 -  8    00 00 02 88 4D 05 42 0D 
   927)       644.902 1  Rx        0120 -  8    23 28 5D C0 17 6F 00 05 
   928)       645.116 1  Rx        0121 -  8    1D 74 28 07 56 52 00 05 
   929)       645.372 1  Rx        0122 -  8    00 00 00 07 04 41 01 05 
   930)       645.585 1  Rx        0777 -  8    E7 03 E8 03 97 3A 97 3A 
   931)       645.841 1  Rx        0778 -  8    88 13 E8 03 00 00 00 00 
   932)       646.652 1  Rx        0210 -  8    01 00 00 00 00 00 00 00 
   933)       647.718 1  Rx        0210 -  8    01 00 00 00 00 00 00 00 
   934)       649.681 1  Rx        0210 -  8    01 00 00 00 00 00 00 00 
   935)       650.748 1  Rx        0160 -  8    00 00 00 00 00 00 00 00 
   936)       651.004 1  Rx        0161 -  8    00 00 00 00 00 00 00 04 
   937)       654.417 1  Rx        0150 -  8    00 00 47 63 2D 00 00 0E 
   938)       654.630 1  Rx        0154 -  8    00 00 02 88 4D 05 42 0E 
   939)       654.929 1  Rx        0120 -  8    23 28 5D C0 17 70 00 06 
   940)       655.185 1  Rx        0121 -  8    1D 6E 27 FE 56 52 00 06 
   941)       655.398 1  Rx        0102 -  8    18 64 0F 0A 13 8D F2 0E 
   942)       655.654 1  Rx        0122 -  8    00 00 00 07 04 41 01 06 
   943)       655.868 1  Rx        0777 -  8    E7 03 E8 03 97 3A 97 3A 
   944)       656.124 1  Rx        0778 -  8    88 13 E8 03 00 00 00 00 
   945)       657.446 1  Rx        0210 -  8    01 00 00 00 00 00 00 00 
   946)       658.214 1  Rx        0210 -  8    01 00 00 00 00 00 00 00 
   947)       660.475 1  Rx        0210 -  8    01 00 00 00 00 00 00 00 
   948)       660.774 1  Rx        0160 -  8    00 00 00 00 00 00 00 00 
   949)       660.987 1  Rx        0161 -  8    00 00 00 00 00 00 00 05 
   950)       664.145 1  Rx        0150 -  8    00 00 47 63 2D 00 00 0F 
   951)       664.401 1  Rx        0154 -  8    00 00 02 74 4D 05 42 0F 
   952)       664.913 1  Rx        0120 -  8    23 28 5D C0 17 6F 00 07 
   953)       665.126 1  Rx        0121 -  8    1D 83 27 FB 56 52 00 07 
   954)       665.382 1  Rx        0122 -  8    00 00 00 07 04 41 01 07 
   955)       665.595 1  Rx        0777 -  8    E7 03 E8 03 98 3A 97 3A 
   956)       665.851 1  Rx        0778 -  8    88 13 E8 03 00 00 00 00 
   957)       667.174 1  Rx        0210 -  8    01 00 00 00 00 00 00 00 
   958)       667.942 1  Rx        0210 -  8    01 00 00 00 00 00 00 00 
   959)       670.203 1  Rx        0210 -  8    01 00 00 00 00 00 00 00 
   960)       670.715 1  Rx        0160 -  8    00 00 00 00 00 00 00 00 
   961)       670.971 1  Rx        0161 -  8    00 00 00 00 00 00 00 06 
   962)       673.873 1  Rx        0150 -  8    00 00 47 63 2D 00 00 00 
   963)       674.129 1  Rx        0154 -  8    00 00 02 74 4D 05 42 00 
   964)       674.854 1  Rx        0120 -  8    23 28 5D C0 17 70 00 08 
   965)       675.110 1  Rx        0121 -  8    1D 7C 27 F8 56 52 00 08 
   966)       675.323 1  Rx        0102 -  8    18 64 0F 0A 13 8D F2 0F 
   967)       675.579 1  Rx        0116 -  8    2A 34 00 00 00 00 00 09 
   968)       675.835 1  Rx        0122 -  8    00 00 00 07 04 41 01 08 
   969)       676.049 1  Rx        0777 -  8    E8 03 E8 03 98 3A 98 3A 
   970)       676.305 1  Rx        0778 -  8    88 13 E8 03 00 00 00 00 
   971)       676.902 1  Rx        0210 -  8    01 00 00 00 00 00 00 00 
   972)       677.670 1  Rx        0210 -  8    01 00 00 00 00 00 00 00 
   973)       679.931 1  Rx        0210 -  8    01 00 00 00 00 00 00 00 
   974)       680.742 1  Rx        0160 -  8    00 00 00 00 00 00 00 00 
   975)       680.998 1  Rx        0161 -  8    00 00 00 00 00 00 00 07 
   976)       684.667 1  Rx        0150 -  8    00 00 47 63 2D 00 00 01 
   977)       684.923 1  Rx        0120 -  8    23 28 5D C0 17 6F 00 09 
   978)       685.136 1  Rx        0121 -  8    1D 6D 28 0A 56 52 00 09 
   979)       685.392 1  Rx        0122 -  8    00 00 00 07 04 41 01 09 
   980)       685.648 1  Rx        0154 -  8    00 00 02 74 4D 05 42 01 
   981)       685.862 1  Rx        0777 -  8    E7 03 E8 03 98 3A 98 3A 
   982)       686.118 1  Rx        0778 -  8    88 13 E8 03 00 00 00 00 
   983)       686.630 1  Rx        0210 -  8    01 00 00 00 00 00 00 00 
   984)       687.440 1  Rx        0210 -  8    01 00 00 00 00 00 00 00 
   985)       688.507 1  Rx        0210 -  8    01 00 00 00 00 00 00 00 
   986)       690.171 1  Rx        0380 -  8    36 10 16 02 45 48 5C 04 
   987)       690.726 1  Rx        0160 -  8    00 00 00 00 00 00 00 00 
   988)       690.982 1  Rx        0161 -  8    00 00 00 00 00 00 00 08 
   989)       693.499 1  Rx        0102 -  8    18 64 0F 0A 13 8D F2 00 
   990)       694.395 1  Rx        0150 -  8    00 00 47 63 2D 00 00 02 
   991)       694.651 1  Rx        0154 -  8    00 00 02 74 4D 05 42 02 
   992)       694.907 1  Rx        0120 -  8    23 28 5D C0 17 70 00 0A 
   993)       695.120 1  Rx        0121 -  8    1D 71 27 F8 56 52 00 0A 
   994)       695.376 1  Rx        0122 -  8    00 00 00 07 04 41 01 0A 
   995)       695.590 1  Rx        0777 -  8    E7 03 E8 03 98 3A 98 3A 
   996)       695.846 1  Rx        0778 -  8    88 13 E8 03 00 00 00 00 
   997)       697.126 1  Rx        0210 -  8    01 00 00 00 00 00 00 00 
   998)       698.235 1  Rx        0210 -  8    01 00 00 00 00 00 00 00 
   999)       700.155 1  Rx        0210 -  8    01 00 00 00 00 00 00 00 
  1000)       700.710 1  Rx        0160 -  8    00 00 00 00 00 00 00 00 
  1001)       700.965 1  Rx        0161 -  8    00 00 00 00 00 00 00 09 
  1002)       701.648 1  Rx        0320 -  8    00 00 00 5F 00 00 00 00 
  1003)       704.123 1  Rx        0150 -  8    00 00 47 63 2D 00 00 03 
  1004)       704.379 1  Rx        0154 -  8    00 00 02 74 4D 05 42 03 
  1005)       704.848 1  Rx        0120 -  8    23 28 5D C0 17 6F 00 0B 
  1006)       705.104 1  Rx        0121 -  8    1D 75 28 01 56 52 00 0B 
  1007)       705.360 1  Rx        0122 -  8    00 00 00 07 04 41 01 0B 
  1008)       705.573 1  Rx        0777 -  8    E7 03 E8 03 98 3A 97 3A 
  1009)       705.829 1  Rx        0778 -  8    88 13 E8 03 00 00 00 00 
  1010)       706.853 1  Rx        0210 -  8    01 00 00 00 00 00 00 00 
  1011)       707.963 1  Rx        0210 -  8    01 00 00 00 00 00 00 00 
  1012)       709.029 1  Rx        0151 -  8    00 00 10 6C 01 00 00 09 
  1013)       709.243 1  Rx        0152 -  8    00 00 08 33 47 01 00 09 
  1014)       709.541 1  Rx        0100 -  8    0E 54 13 88 64 11 00 00 
  1015)       709.925 1  Rx        0210 -  8    01 00 00 00 00 00 00 00 
  1016)       710.693 1  Rx        0160 -  8    00 00 00 00 00 00 00 00 
  1017)       710.949 1  Rx        0161 -  8    00 00 00 00 00 00 00 0A 
  1018)       712.059 1  Rx        0188 -  8    40 00 6A 51 08 61 7A 10 
  1019)       712.400 1  Rx        0102 -  8    18 64 0F 0A 13 8D F2 01 
  1020)       713.893 1  Rx        0150 -  8    00 00 47 63 2D 00 00 04 
  1021)       714.149 1  Rx        0154 -  8    00 00 02 74 4D 05 42 04 
  1022)       714.875 1  Rx        0120 -  8    23 28 5D C0 17 70 00 0C 
  1023)       715.131 1  Rx        0121 -  8    1D 7F 27 F2 56 52 00 0C 
  1024)       715.344 1  Rx        0122 -  8    00 00 00 07 04 41 01 0C 
  1025)       715.600 1  Rx        0777 -  8    E7 03 E8 03 98 3A 97 3A 
  1026)       715.813 1  Rx        0778 -  8    88 13 E8 03 00 00 00 00 
  1027)       717.691 1  Rx        0210 -  8    01 00 00 00 00 00 00 00 
  1028)       718.800 1  Rx        052C -  8    03 0A 01 D6 0A 5F 05 54 
  1029)       719.013 1  Rx        052D -  8    04 1E 05 BA 08 09 00 1E 
  1030)       719.696 1  Rx        0210 -  8    01 00 00 00 00 00 00 00 
  1031)       720.677 1  Rx        0160 -  8    00 00 00 00 00 00 00 00 
  1032)       720.933 1  Rx        0161 -  8    00 00 00 00 00 00 00 0B 
  1033)       721.189 1  Rx        0210 -  8    01 00 00 00 00 00 00 00 
  1034)       724.432 1  Rx        0150 -  8    00 00 47 63 2D 00 00 05 
  1035)       724.645 1  Rx        0154 -  8    00 00 02 74 4D 05 42 05 
  1036)       724.944 1  Rx        0120 -  8    23 28 5D C0 17 70 00 0D 
  1037)       725.157 1  Rx        0121 -  8    1D 80 27 EE 56 52 00 0D 
  1038)       725.413 1  Rx        0122 -  8    00 00 00 07 04 41 01 0D 
  1039)       725.669 1  Rx        0190 -  8    01 00 00 00 00 00 00 00 
  1040)       725.882 1  Rx        0777 -  8    E7 03 E8 03 98 3A 98 3A 
  1041)       726.138 1  Rx        0778 -  8    88 13 E8 03 00 00 00 00 
  1042)       727.461 1  Rx        0210 -  8    01 00 00 00 00 00 00 00 
  1043)       728.229 1  Rx        0210 -  8    01 00 00 00 00 00 00 00 
  1044)       729.338 1  Rx        052A -  8    10 0C 06 00 00 00 00 00 
  1045)       729.594 1  Rx        052B -  8    9F 81 0F 00 00 00 00 00 
  1046)       730.362 1  Rx        0114 -  8    28 28 00 28 5E 80 5E 85 
  1047)       730.618 1  Rx        0210 -  8    01 00 00 00 00 00 00 00 
  1048)       730.874 1  Rx        0160 -  8    00 00 00 00 00 00 00 00 
  1049)       731.130 1  Rx        0161 -  8    00 00 00 00 00 00 00 0C 
  1050)       731.514 1  Rx        0102 -  8    18 64 0F 0A 13 8D F2 02 
  1051)       734.160 1  Rx        0150 -  8    00 00 47 63 2D 00 00 06 
  1052)       734.416 1  Rx        0154 -  8    00 00 02 74 4D 05 42 06 
  1053)       734.885 1  Rx        0120 -  8    23 28 5D C0 17 70 00 0E 
  1054)       735.098 1  Rx        0121 -  8    1D 7C 27 FE 56 52 00 0E 
  1055)       735.354 1  Rx        0122 -  8    00 00 00 07 04 41 01 0E 
  1056)       735.568 1  Rx        0777 -  8    E7 03 E8 03 98 3A 98 3A 
  1057)       735.824 1  Rx        0778 -  8    88 13 E8 03 00 00 00 00 
  1058)       737.189 1  Rx        0210 -  8    01 00 00 00 00 00 00 00 
  1059)       737.530 1  Rx        0115 -  8    D3 D3 00 00 00 00 00 0E 
  1060)       738.000 1  Rx        0210 -  8    01 00 00 00 00 00 00 00 
  1061)       739.066 1  Rx        052E -  8    00 07 00 05 00 00 65 95 
  1062)       739.322 1  Rx        0153 -  8    20 00 00 00 09 10 25 09 
  1063)       740.261 1  Rx        0210 -  8    01 00 00 00 00 00 00 00 
  1064)       740.688 1  Rx        0160 -  8    00 00 00 00 00 00 00 00 
  1065)       740.944 1  Rx        0161 -  8    00 00 00 00 00 00 00 0D 
  1066)       743.973 1  Rx        0150 -  8    00 00 47 63 2D 00 00 07 
  1067)       744.186 1  Rx        0154 -  8    00 00 02 88 4D 05 42 07 
  1068)       744.869 1  Rx        0120 -  8    23 28 5D C0 17 6F 00 0F 
  1069)       745.125 1  Rx        0121 -  8    1D 6D 27 FB 56 52 00 0F 
  1070)       745.381 1  Rx        0122 -  8    00 00 00 07 04 41 01 0F 
  1071)       745.594 1  Rx        0777 -  8    E7 03 E8 03 98 3A 97 3A 
  1072)       745.850 1  Rx        0778 -  8    88 13 E8 03 00 00 00 00 
  1073)       747.002 1  Rx        0210 -  8    01 00 00 00 00 00 00 00 
  1074)       747.770 1  Rx        0210 -  8    01 00 00 00 00 00 00 00 
  1075)       750.031 1  Rx        0210 -  8    01 00 00 00 00 00 00 00 
  1076)       750.415 1  Rx        0102 -  8    18 64 0F 0A 13 8D F2 03 
  1077)       750.671 1  Rx        0160 -  8    00 00 00 00 00 00 00 00 
  1078)       750.927 1  Rx        0161 -  8    00 00 00 00 00 00 00 0E 
  1079)       754.767 1  Rx        0150 -  8    00 00 47 63 2D 00 00 08 
  1080)       754.981 1  Rx        0120 -  8    23 28 5D C0 17 6F 00 00 
  1081)       755.237 1  Rx        0121 -  8    1D 70 27 FB 56 52 00 00 
  1082)       755.493 1  Rx        0122 -  8    00 00 00 07 04 41 01 00 
  1083)       755.706 1  Rx        0154 -  8    00 00 02 74 4D 05 42 08 
  1084)       755.962 1  Rx        0777 -  8    E7 03 E8 03 97 3A 97 3A 
  1085)       756.175 1  Rx        0778 -  8    88 13 E8 03 00 00 00 00 
  1086)       756.730 1  Rx        0210 -  8    01 00 00 00 00 00 00 00 
  1087)       757.498 1  Rx        0210 -  8    01 00 00 00 00 00 00 00 
  1088)       758.607 1  Rx        0210 -  8    01 00 00 00 00 00 00 00 
  1089)       760.655 1  Rx        0160 -  8    00 00 00 00 00 00 00 00 
  1090)       760.911 1  Rx        0161 -  8    00 00 00 00 00 00 00 0F 
  1091)       764.495 1  Rx        0150 -  8    00 00 47 63 2D 00 00 09 
  1092)       764.751 1  Rx        0154 -  8    00 00 02 74 4D 05 42 09 
  1093)       764.964 1  Rx        0120 -  8    23 28 5D C0 17 6F 00 01 
  1094)       765.220 1  Rx        0121 -  8    1D 6F 27 F2 56 52 00 01 
  1095)       765.434 1  Rx        0122 -  8    00 00 00 07 04 41 01 01 
  1096)       765.690 1  Rx        0777 -  8    E7 03 E8 03 97 3A 97 3A 
  1097)       765.903 1  Rx        0778 -  8    88 13 E8 03 00 00 00 00 
  1098)       766.458 1  Rx        0210 -  8    01 00 00 00 00 00 00 00 
  1099)       767.226 1  Rx        0210 -  8    01 00 00 00 00 00 00 00 
  1100)       768.335 1  Rx        0210 -  8    01 00 00 00 00 00 00 00 
  1101)       769.402 1  Rx        0102 -  8    18 64 0F 0A 13 8D F2 04 
  1102)       770.639 1  Rx        0160 -  8    00 00 00 00 00 00 00 00 
  1103)       770.895 1  Rx        0161 -  8    00 00 00 00 00 00 00 00 
  1104)       774.223 1  Rx        0150 -  8    00 00 47 63 2D 00 00 0A 
  1105)       774.479 1  Rx        0154 -  8    00 00 02 74 4D 05 42 0A 
  1106)       774.863 1  Rx        0120 -  8    23 28 5D C0 17 70 00 02 
  1107)       775.119 1  Rx        0121 -  8    1D 7B 27 FE 56 52 00 02 
  1108)       775.375 1  Rx        0122 -  8    00 00 00 07 04 41 01 02 
  1109)       775.588 1  Rx        0112 -  8    16 10 20 39 10 12 00 0D 
  1110)       775.844 1  Rx        0113 -  8    01 45 44 44 00 0D 00 0D 
  1111)       776.058 1  Rx        0116 -  8    2A 34 00 00 00 00 00 0A 
  1112)       776.314 1  Rx        0777 -  8    E7 03 E8 03 97 3A 97 3A 
  1113)       776.527 1  Rx        0778 -  8    88 13 E8 03 00 00 00 00 
  1114)       776.954 1  Rx        0210 -  8    01 00 00 00 00 00 00 00 
  1115)       777.551 1  Rx        0105 -  8    00 00 00 00 00 00 00 06 
  1116)       778.020 1  Rx        0210 -  8    01 00 00 00 00 00 00 00 
  1117)       779.983 1  Rx        0210 -  8    01 00 00 00 00 00 00 00 
  1118)       780.623 1  Rx        0160 -  8    00 00 00 00 00 00 00 00 
  1119)       780.879 1  Rx        0161 -  8    00 00 00 00 00 00 00 01 
  1120)       783.951 1  Rx        0150 -  8    00 00 47 63 2D 00 00 0B 
  1121)       784.207 1  Rx        0154 -  8    00 00 02 74 4D 05 42 0B 
  1122)       784.932 1  Rx        0120 -  8    23 28 5D C0 17 6F 00 03 
  1123)       785.146 1  Rx        0121 -  8    1D 7E 27 F5 56 52 00 03 
  1124)       785.402 1  Rx        0122 -  8    00 00 00 07 04 41 01 03 
  1125)       785.615 1  Rx        0777 -  8    E7 03 E8 03 97 3A 97 3A 
  1126)       785.871 1  Rx        0778 -  8    88 13 E8 03 00 00 00 00 
  1127)       786.681 1  Rx        0210 -  8    01 00 00 00 00 00 00 00 
  1128)       787.748 1  Rx        0210 -  8    01 00 00 00 00 00 00 00 
  1129)       789.199 1  Rx        0102 -  8    18 64 0F 0A 13 8D F2 05 
  1130)       789.711 1  Rx        0210 -  8    01 00 00 00 00 00 00 00 
  1131)       790.137 1  Rx        0380 -  8    37 10 17 03 44 48 5C 05 
  1132)       790.649 1  Rx        0160 -  8    00 00 00 00 00 00 00 00 
  1133)       790.863 1  Rx        0161 -  8    00 00 00 00 00 00 00 02 
  1134)       794.447 1  Rx        0150 -  8    00 00 47 63 2D 00 00 0C 
  1135)       794.703 1  Rx        0154 -  8    00 00 02 74 4D 05 42 0C 
  1136)       794.916 1  Rx        0120 -  8    23 28 5D C0 17 6F 00 04 
  1137)       795.172 1  Rx        0121 -  8    1D 7D 27 FB 56 52 00 04 
  1138)       795.385 1  Rx        0122 -  8    00 00 00 07 04 41 01 04 
  1139)       795.641 1  Rx        0777 -  8    E7 03 E8 03 97 3A 97 3A 
  1140)       795.855 1  Rx        0778 -  8    88 13 E8 03 00 00 00 00 
  1141)       797.476 1  Rx        0210 -  8    01 00 00 00 00 00 00 00 
  1142)       798.244 1  Rx        0210 -  8    01 00 00 00 00 00 00 00 
  1143)       800.505 1  Rx        0210 -  8    01 00 00 00 00 00 00 00 
  1144)       800.761 1  Rx        0160 -  8    00 00 00 00 00 00 00 00 
  1145)       801.017 1  Rx        0161 -  8    00 00 00 00 00 00 00 03 
  1146)       801.743 1  Rx        0320 -  8    00 00 00 5F 00 00 00 00 
  1147)       804.175 1  Rx        0150 -  8    00 00 47 63 2D 00 00 0D 
  1148)       804.431 1  Rx        0154 -  8    00 00 02 74 4D 05 42 0D 
  1149)       804.900 1  Rx        0120 -  8    23 28 5D C0 17 6F 00 05 
  1150)       805.113 1  Rx        0121 -  8    1D 6E 28 01 56 52 00 05 
  1151)       805.369 1  Rx        0122 -  8    00 00 00 07 04 41 01 05 
  1152)       805.583 1  Rx        0777 -  8    E7 03 E8 03 97 3A 97 3A 
  1153)       805.839 1  Rx        0778 -  8    88 13 E8 03 00 00 00 00 
  1154)       807.204 1  Rx        0210 -  8    01 00 00 00 00 00 00 00 
  1155)       807.460 1  Rx        0102 -  8    18 64 0F 0A 13 8D F2 06 
  1156)       808.014 1  Rx        0210 -  8    01 00 00 00 00 00 00 00 
  1157)       809.081 1  Rx        0151 -  8    00 00 10 6C 01 00 00 0A 
  1158)       809.294 1  Rx        0152 -  8    00 00 08 33 47 01 00 0A 
  1159)       809.550 1  Rx        0100 -  8    0E 54 13 88 64 11 00 01 
  1160)       810.276 1  Rx        0210 -  8    01 00 00 00 00 00 00 00 
  1161)       810.617 1  Rx        0160 -  8    00 00 00 00 00 00 00 00 
  1162)       810.873 1  Rx        0161 -  8    00 00 00 00 00 00 00 04 
  1163)       812.025 1  Rx        0188 -  8    40 00 6A 51 08 61 7A 10 
  1164)       814.073 1  Rx        0150 -  8    00 00 47 63 2D 00 00 0E 
  1165)       814.329 1  Rx        0154 -  8    00 00 02 74 4D 05 42 0E 
  1166)       814.884 1  Rx        0120 -  8    23 28 5D C0 17 70 00 06 
  1167)       815.140 1  Rx        0121 -  8    1D 72 27 F5 56 52 00 06 
  1168)       815.396 1  Rx        0122 -  8    00 00 00 07 04 41 01 06 
  1169)       815.609 1  Rx        0777 -  8    E7 03 E8 03 97 3A 97 3A 
  1170)       815.865 1  Rx        0778 -  8    88 13 E8 03 00 00 00 00 
  1171)       817.145 1  Rx        0210 -  8    01 00 00 00 00 00 00 00 
  1172)       817.913 1  Rx        0210 -  8    01 00 00 00 00 00 00 00 
  1173)       818.980 1  Rx        052C -  8    03 14 01 DE 0A 61 05 52 
  1174)       819.236 1  Rx        052D -  8    04 0B 05 BA 07 F0 00 1E 
  1175)       820.174 1  Rx        0210 -  8    01 00 00 00 00 00 00 00 
  1176)       820.601 1  Rx        0160 -  8    00 00 00 00 00 00 00 00 
  1177)       820.857 1  Rx        0161 -  8    00 00 00 00 00 00 00 05 
  1178)       823.844 1  Rx        0150 -  8    00 00 47 63 2D 00 00 0F 
  1179)       824.100 1  Rx        0154 -  8    00 00 02 74 4D 05 42 0F 
  1180)       824.868 1  Rx        0120 -  8    23 28 5D C0 17 70 00 07 
  1181)       825.124 1  Rx        0121 -  8    1D 6D 27 F8 56 52 00 07 
  1182)       825.337 1  Rx        0122 -  8    00 00 00 07 04 41 01 07 
  1183)       825.593 1  Rx        0190 -  8    01 00 00 00 00 00 00 00 
  1184)       825.849 1  Rx        0777 -  8    E8 03 E8 03 98 3A 98 3A 
  1185)       826.062 1  Rx        0778 -  8    88 13 E8 03 00 00 00 00 
  1186)       826.532 1  Rx        0102 -  8    18 64 0F 0A 13 8D F2 07 
  1187)       826.873 1  Rx        0210 -  8    01 00 00 00 00 00 00 00 
  1188)       827.428 1  Rx        0114 -  8    28 28 00 28 5E 80 5E 86 
  1189)       827.684 1  Rx        0210 -  8    01 00 00 00 00 00 00 00 
  1190)       828.750 1  Rx        0210 -  8    01 00 00 00 00 00 00 00 
  1191)       829.817 1  Rx        052A -  8    10 0C 06 00 00 00 00 00 
  1192)       830.073 1  Rx        052B -  8    9F 81 0F 00 00 00 00 00 
  1193)       830.585 1  Rx        0160 -  8    00 00 00 00 00 00 00 00 
  1194)       830.841 1  Rx        0161 -  8    00 00 00 00 00 00 00 06 
  1195)       834.681 1  Rx        0150 -  8    00 00 47 63 2D 00 00 00 
  1196)       834.894 1  Rx        0120 -  8    23 28 5D C0 17 6F 00 08 
  1197)       835.150 1  Rx        0121 -  8    1D 7F 27 FB 56 52 00 08 
  1198)       835.363 1  Rx        0122 -  8    00 00 00 07 04 41 01 08 
  1199)       835.619 1  Rx        0154 -  8    00 00 02 74 4D 05 42 00 
  1200)       835.833 1  Rx        0777 -  8    E7 03 E8 03 98 3A 97 3A 
  1201)       836.089 1  Rx        0778 -  8    88 13 E8 03 00 00 00 00 
  1202)       836.387 1  Rx        0115 -  8    D3 D3 00 00 00 00 00 0F 
  1203)       836.643 1  Rx        0210 -  8    01 00 00 00 00 00 00 00 
  1204)       837.411 1  Rx        0210 -  8    01 00 00 00 00 00 00 00 
  1205)       838.478 1  Rx        0210 -  8    01 00 00 00 00 00 00 00 
  1206)       839.545 1  Rx        052E -  8    00 07 00 05 00 00 65 95 
  1207)       839.801 1  Rx        0153 -  8    20 00 00 00 09 10 25 03 
  1208)       840.569 1  Rx        0160 -  8    00 00 00 00 00 00 00 00 
  1209)       840.825 1  Rx        0161 -  8    00 00 00 00 00 00 00 07 
  1210)       844.409 1  Rx        0150 -  8    00 00 47 63 2D 00 00 01 
  1211)       844.665 1  Rx        0154 -  8    00 00 02 74 4D 05 42 01 
  1212)       844.878 1  Rx        0120 -  8    23 28 5D C0 17 70 00 09 
  1213)       845.134 1  Rx        0121 -  8    1D 7D 27 FE 56 52 00 09 
  1214)       845.390 1  Rx        0122 -  8    00 00 00 07 04 41 01 09 
  1215)       845.603 1  Rx        0777 -  8    E7 03 E8 03 98 3A 98 3A 
  1216)       845.859 1  Rx        0778 -  8    88 13 E8 03 00 00 00 00 
  1217)       846.414 1  Rx        0102 -  8    18 64 0F 0A 13 8D F2 08 
  1218)       847.139 1  Rx        0210 -  8    01 00 00 00 00 00 00 00 
  1219)       848.249 1  Rx        0210 -  8    01 00 00 00 00 00 00 00 
  1220)       850.168 1  Rx        0210 -  8    01 00 00 00 00 00 00 00 
  1221)       850.552 1  Rx        0160 -  8    00 00 00 00 00 00 00 00 
  1222)       850.808 1  Rx        0161 -  8    00 00 00 00 00 00 00 08 
  1223)       854.179 1  Rx        0150 -  8    00 00 47 63 2D 00 00 02 
  1224)       854.392 1  Rx        0154 -  8    00 00 02 74 4D 05 42 02 
  1225)       854.947 1  Rx        0120 -  8    23 28 5D C0 17 70 00 0A 
  1226)       855.203 1  Rx        0121 -  8    1D 6D 27 EE 56 52 00 0A 
  1227)       855.416 1  Rx        0122 -  8    00 00 00 07 04 41 01 0A 
  1228)       855.672 1  Rx        0777 -  8    E8 03 E8 03 98 3A 98 3A 
  1229)       855.886 1  Rx        0778 -  8    88 13 E8 03 00 00 00 00 
  1230)       856.867 1  Rx        0210 -  8    01 00 00 00 00 00 00 00 
  1231)       857.976 1  Rx        0210 -  8    01 00 00 00 00 00 00 00 
  1232)       859.939 1  Rx        0210 -  8    01 00 00 00 00 00 00 00 
  1233)       860.579 1  Rx        0160 -  8    00 00 00 00 00 00 00 00 
  1234)       860.835 1  Rx        0161 -  8    00 00 00 00 00 00 00 09 
  1235)       863.907 1  Rx        0150 -  8    00 00 47 63 2D 00 00 03 
  1236)       864.120 1  Rx        0154 -  8    00 00 02 88 4D 05 42 03 
  1237)       864.888 1  Rx        0120 -  8    23 28 5D C0 17 70 00 0B 
  1238)       865.144 1  Rx        0121 -  8    1D 6C 28 01 56 52 00 0B 
  1239)       865.358 1  Rx        0122 -  8    00 00 00 07 04 41 01 0B 
  1240)       865.614 1  Rx        0102 -  8    18 64 0F 0A 13 8D F2 09 
  1241)       865.827 1  Rx        0777 -  8    E7 03 E8 03 98 3A 98 3A 
  1242)       866.083 1  Rx        0778 -  8    88 13 E8 03 00 00 00 00 
  1243)       866.638 1  Rx        0210 -  8    01 00 00 00 00 00 00 00 
  1244)       867.704 1  Rx        0210 -  8    01 00 00 00 00 00 00 00 
  1245)       869.667 1  Rx        0210 -  8    01 00 00 00 00 00 00 00 
  1246)       870.563 1  Rx        0160 -  8    00 00 00 00 00 00 00 00 
  1247)       870.819 1  Rx        0161 -  8    00 00 00 00 00 00 00 0A 
  1248)       874.403 1  Rx        0150 -  8    00 00 47 63 2D 00 00 04 
  1249)       874.659 1  Rx        0154 -  8    00 00 02 88 4D 05 42 04 
  1250)       874.915 1  Rx        0120 -  8    23 28 5D C0 17 6F 00 0C 
  1251)       875.128 1  Rx        0121 -  8    1D 6C 28 04 56 52 00 0C 
  1252)       875.384 1  Rx        0122 -  8    00 00 00 07 04 41 01 0C 
  1253)       875.597 1  Rx        0777 -  8    E8 03 E8 03 98 3A 98 3A 
  1254)       875.853 1  Rx        0778 -  8    88 13 E8 03 00 00 00 00 
  1255)       877.432 1  Rx        0210 -  8    01 00 00 00 00 00 00 00 
  1256)       877.688 1  Rx        0116 -  8    2A 34 00 00 00 00 00 0B 
  1257)       878.200 1  Rx        0210 -  8    01 00 00 00 00 00 00 00 
  1258)       880.461 1  Rx        0210 -  8    01 00 00 00 00 00 00 00 
  1259)       880.717 1  Rx        0160 -  8    00 00 00 00 00 00 00 00 
  1260)       880.973 1  Rx        0161 -  8    00 00 00 00 00 00 00 0B 
  1261)       884.131 1  Rx        0150 -  8    00 00 47 63 2D 00 00 05 
  1262)       884.387 1  Rx        0154 -  8    00 00 02 74 4D 05 42 05 
  1263)       884.941 1  Rx        0120 -  8    23 28 5D C0 17 70 00 0D 
  1264)       885.155 1  Rx        0121 -  8    1D 7B 28 01 56 52 00 0D 
  1265)       885.411 1  Rx        0102 -  8    18 64 0F 0A 13 8D F2 0A 
  1266)       885.624 1  Rx        0122 -  8    00 00 00 07 04 41 01 0D 
  1267)       885.880 1  Rx        0777 -  8    E8 03 E8 03 98 3A 98 3A 
  1268)       886.136 1  Rx        0778 -  8    88 13 E8 03 00 00 00 00 
  1269)       887.160 1  Rx        0210 -  8    01 00 00 00 00 00 00 00 
  1270)       887.971 1  Rx        0210 -  8    01 00 00 00 00 00 00 00 
  1271)       890.147 1  Rx        0380 -  8    38 10 13 04 44 48 5C 06 
  1272)       890.403 1  Rx        0210 -  8    01 00 00 00 00 00 00 00 
  1273)       890.659 1  Rx        0160 -  8    00 00 00 00 00 00 00 00 
  1274)       890.872 1  Rx        0161 -  8    00 00 00 00 00 00 00 0C 
  1275)       893.858 1  Rx        0150 -  8    00 00 47 63 2D 00 00 06 
  1276)       894.114 1  Rx        0154 -  8    00 00 02 74 4D 05 42 06 
  1277)       894.882 1  Rx        0120 -  8    23 28 5D C0 17 70 00 0E 
  1278)       895.138 1  Rx        0121 -  8    1D 7D 27 F5 56 52 00 0E 
  1279)       895.394 1  Rx        0122 -  8    00 00 00 07 04 41 01 0E 
  1280)       895.608 1  Rx        0777 -  8    E8 03 E8 03 98 3A 98 3A 
  1281)       895.864 1  Rx        0778 -  8    88 13 E8 03 00 00 00 00 
  1282)       896.888 1  Rx        0210 -  8    01 00 00 00 00 00 00 00 
  1283)       897.698 1  Rx        0210 -  8    01 00 00 00 00 00 00 00 
  1284)       898.765 1  Rx        0210 -  8    01 00 00 00 00 00 00 00 
  1285)       900.514 1  Rx        0160 -  8    00 00 00 00 00 00 00 00 
  1286)       900.770 1  Rx        0161 -  8    00 00 00 00 00 00 00 0D 
  1287)       901.880 1  Rx        0320 -  8    00 00 00 5F 00 00 00 00 
  1288)       903.416 1  Rx        0102 -  8    18 64 0F 0A 13 8D F2 0B 
  1289)       904.696 1  Rx        0150 -  8    00 00 47 63 2D 00 00 07 
  1290)       904.909 1  Rx        0120 -  8    23 28 5D C0 17 6F 00 0F 
  1291)       905.165 1  Rx        0121 -  8    1D 7D 27 FB 56 52 00 0F 
  1292)       905.378 1  Rx        0122 -  8    00 00 00 07 04 41 01 0F 
  1293)       905.634 1  Rx        0154 -  8    00 00 02 74 4D 05 42 07 
  1294)       905.848 1  Rx        0777 -  8    E7 03 E8 03 98 3A 98 3A 
  1295)       906.104 1  Rx        0778 -  8    88 13 E8 03 00 00 00 00 
  1296)       906.658 1  Rx        0210 -  8    01 00 00 00 00 00 00 00 
  1297)       907.426 1  Rx        0210 -  8    01 00 00 00 00 00 00 00 
  1298)       908.536 1  Rx        0210 -  8    01 00 00 00 00 00 00 00 
  1299)       909.602 1  Rx        0151 -  8    00 00 10 6C 01 00 00 0B 
  1300)       909.858 1  Rx        0152 -  8    00 00 08 33 47 01 00 0B 
  1301)       910.114 1  Rx        015F -  8    00 00 00 00 00 00 00 00 
  1302)       910.498 1  Rx        0100 -  8    0E 54 13 88 64 11 00 02 
  1303)       910.712 1  Rx        0160 -  8    00 00 00 00 00 00 00 00 
  1304)       910.968 1  Rx        0161 -  8    00 00 00 00 00 00 00 0E 
  1305)       911.992 1  Rx        0188 -  8    40 00 6A 51 08 61 7A 10 
  1306)       914.466 1  Rx        0150 -  8    00 00 47 63 2D 00 00 08 
  1307)       914.679 1  Rx        0154 -  8    00 00 02 74 4D 05 42 08 
  1308)       914.935 1  Rx        0120 -  8    23 28 5D C0 17 6F 00 00 
  1309)       915.149 1  Rx        0121 -  8    1D 70 27 F5 56 52 00 00 
  1310)       915.405 1  Rx        0122 -  8    00 00 00 07 04 41 01 00 
  1311)       915.618 1  Rx        0777 -  8    E8 03 E8 03 97 3A 98 3A 
  1312)       915.874 1  Rx        0778 -  8    88 13 E8 03 00 00 00 00 
  1313)       917.197 1  Rx        0210 -  8    01 00 00 00 00 00 00 00 
  1314)       918.263 1  Rx        0210 -  8    01 00 00 00 00 00 00 00 
  1315)       919.373 1  Rx        052C -  8    03 0C 01 D4 0A 64 05 71 
  1316)       919.586 1  Rx        052D -  8    04 0B 05 A8 07 EB 00 1E 
  1317)       920.269 1  Rx        0210 -  8    01 00 00 00 00 00 00 00 
  1318)       920.482 1  Rx        0160 -  8    00 00 00 00 00 00 00 00 
  1319)       920.738 1  Rx        0161 -  8    00 00 00 00 00 00 00 0F 
  1320)       922.402 1  Rx        0102 -  8    18 64 0F 0A 13 8D F2 0C 
  1321)       924.194 1  Rx        0150 -  8    00 00 47 63 2D 00 00 09 
  1322)       924.450 1  Rx        0154 -  8    00 00 02 88 4D 05 42 09 
  1323)       924.962 1  Rx        0120 -  8    23 28 5D C0 17 70 00 01 
  1324)       925.218 1  Rx        0121 -  8    1D 6E 28 01 56 52 00 01 
  1325)       925.431 1  Rx        0114 -  8    28 28 00 28 5E 80 5E 87 
  1326)       925.687 1  Rx        0122 -  8    00 00 00 07 04 41 01 01 
  1327)       925.943 1  Rx        0190 -  8    01 00 00 00 00 00 00 00 
  1328)       926.157 1  Rx        0777 -  8    E7 03 E8 03 98 3A 98 3A 
  1329)       926.413 1  Rx        0778 -  8    88 13 E8 03 00 00 00 00 
  1330)       926.925 1  Rx        0210 -  8    01 00 00 00 00 00 00 00 
  1331)       928.034 1  Rx        0210 -  8    01 00 00 00 00 00 00 00 
  1332)       929.101 1  Rx        052A -  8    10 0C 06 00 00 00 00 00 
  1333)       929.357 1  Rx        052B -  8    9F 81 0F 00 00 00 00 00 
  1334)       929.997 1  Rx        0210 -  8    01 00 00 00 00 00 00 00 
  1335)       930.509 1  Rx        0160 -  8    00 00 00 00 00 00 00 00 
  1336)       930.765 1  Rx        0161 -  8    00 00 00 00 00 00 00 00 
  1337)       933.965 1  Rx        0150 -  8    00 00 47 63 2D 00 00 0A 
  1338)       934.221 1  Rx        0154 -  8    00 00 02 74 4D 05 42 0A 
